make: Entering directory '/home/geo/vortex/build/tests/regression/sgemm_tcu'
LD_LIBRARY_PATH=/home/geo/vortex/build/runtime: VORTEX_DRIVER=rtlsim ./sgemm_tcu -m32 -n32 -k64
open device connection
CONFIGS: num_threads=32, num_warps=4, num_cores=1, num_clusters=1, socket_size=1, local_mem_base=0xffff0000, num_barriers=2
                   1: cluster0-socket0-core0-commit: wid=2, sid=0, PC=0xd03566ca, ex=ALU, tmask=00111101010010111001011110000001, wb=0, rd=31, sop=0, eop=0, data={0x791c9d23, 0xce5d4204, 0x59f33efb, 0x9b94ad58, 0x8f402e26, 0x9945211d, 0xc45cb07b, 0xcb55fa26, 0xfc058bec, 0x31f7e0, 0x5f2eaf35, 0x7398980f, 0xd3f1bc73, 0x241edd93, 0x6c2877c3, 0x1cf80b25, 0x402bc3a4, 0xb7489e8a, 0xe042b0bf, 0x8c3b75ee, 0x6c44a026, 0x860bdc0a, 0xbaf24be2, 0x40b4eaff, 0x13595ebd, 0xb36f2b18, 0xf55845fe, 0x99ee2608, 0x7767cb15, 0xe039717a, 0xcb9e14a8, 0x5e79f5ad} (#2437855618295)
                   1: cluster0-socket0-core0-issue0-ibuffer: wid=0, PC=0xb319f80f, ex=SFU, op=?, tmask=11011101111001000110101001000001, wb=1, used_rs=110, rd=56, rs1=33, rs2=44, rs3=56,  (#164402726440)
                   1: cluster0-socket0-core0-issue0-ibuffer: wid=1, PC=0xbebe041a, ex=ALU, op=MULHU, tmask=11000010110111001111101011110010, wb=1, used_rs=100, rd=29, rs1=55, rs2=47, rs3=29, use_PC=0, use_imm=0, imm=0xbb676744 (#5668090429601)
                   1: cluster0-socket0-core0-issue0-ibuffer: wid=2, PC=0x578ce420, ex=LSU, op=?, tmask=11001110111101100101111101000001, wb=1, used_rs=001, rd=56, rs1=33, rs2=44, rs3=56, offset=0x800 (#8711320174921)
                   1: [VX_scoreboard] Issuing load u-op. ISSUE_ID=0, sel_wis=0, op_type=0x3, uuid=#5046545396681, PC=0x6081afa3
                   1: cluster0-socket0-core0-fetch rsp: wid=3, PC=0x7b42482, tmask=11010100100000100011000000001110, instr=0x1236b38f (#8733670497657)
[tcu_uops]: step_m=0, step_n=0, step_k=1, rs1=1, rs2=c, rs3=18
                   1: [tcu_fp] Execute done, delay_pipe=10011
                   3: [tcu_unit]: Activated (inner-product)
a_block:
{0xcaea1e97, 0xbe92c605, 0xbba1fccb, 0x101cf5f0, 0x3fed4346, 0x7abb1cb9, 0xa8d4f73, 0x4a455c1e, 0x3f224d83, 0x8cc79f30, 0xeb1add41, 0xe993de39, 0xbc48d830, 0x4cb78500, 0x9df48904, 0x87bafa6f, 0x92c7c1a5, 0xc8fd6cd, 0x2c6da929, 0x5e1a55d4, 0x158eccdc, 0xe6e5856c, 0x8102790d, 0xce04f623, 0xb818a3e1, 0x7804f506, 0x2bf3fc38, 0xf0633d0f, 0x3946a2aa, 0xd2da24c4, 0xe95e1d29, 0x85ebb5d9}
b_block:
{0x1a764591, 0x5da1bdf9, 0x72d4add2, 0x24c791d6, 0x26766792, 0xf54c8fcf, 0x2fae9852, 0x85fb0524, 0x30c112a3, 0x72b0696, 0x6a704c3a, 0xb3639991, 0x4fef4bd5, 0xc63846fc, 0xba7392e5, 0x16befd5f, 0x4a366ffa, 0x22736e61, 0x9d3f6f3b, 0x121cf0aa, 0x26c1acee, 0xb4f516f9, 0x7b3f9c46, 0x6cb1546b, 0x416f5a76, 0x457fa118, 0x45ad5fa2, 0x693a451c, 0xb7dcbd, 0x23eb69a7, 0xdde720cb, 0xb259004c}
c_block:
{0xc83d4c71, 0x84426ea6, 0x3838d019, 0xace60a68, 0x10b80773, 0xacfef7ad, 0x199a860, 0x19c8f997, 0x3225ba08, 0xba49cb9a, 0x1edfb281, 0xd8d6ee49, 0x77d26490, 0x57f467f0, 0x660b2fc, 0x3dd588ab, 0x89fc7122, 0xfc719faf, 0x3cbad45f, 0xccc214ea, 0x8b87b156, 0x7908e7cb, 0x6acaaccc, 0x9dd27873, 0x49bd46ef, 0xa4ad89b3, 0x5e7a0146, 0x32feb572, 0x75d863b8, 0x534cdbbf, 0x5089c55e, 0xc3e054cb}
                   3: cluster0-socket0-core0-schedule: wid=0, PC=0x50b32fcb, tmask=01111001000110000101110010101011 (#2641640012)
                   3: cluster0-socket0-core0-commit: wid=2, sid=0, PC=0xd3356f34, ex=ALU, tmask=01110011111110110000111001010000, wb=0, rd=20, sop=1, eop=1, data={0xc5579f87, 0x994356ea, 0x74133279, 0x9a791709, 0xd43762ab, 0xd8d0f13d, 0x5db2c121, 0xba7401ee, 0x5c506dfd, 0x37f0e76b, 0xf3987be5, 0xf2b8bd39, 0x743cc696, 0x3d2fa4dd, 0x861e59e1, 0x4fcfba45, 0xc0a16510, 0x23fa75bb, 0x88a9a617, 0xe75d55f1, 0x98adea27, 0x32e40d29, 0xe01b6adf, 0x60902ef2, 0x14473b63, 0xf595b4e2, 0x42699e2d, 0xf6f30411, 0x741f7741, 0x13b46a8d, 0xd5adf65a, 0x603fe979} (#10318407925336)
                   3: cluster0-socket0-core0-issue0-ibuffer: wid=2, PC=0x578ce420, ex=LSU, op=?, tmask=11001110111101100101111101000001, wb=1, used_rs=001, rd=57, rs1=33, rs2=44, rs3=57, offset=0x810 (#8711454392649)
                   3: cluster0-socket0-core0-issue0-ibuffer: wid=3, PC=0x7b42482, ex=LSU, op=FENCE, tmask=11010100100000100011000000001110, wb=0, used_rs=000, rd=1, rs1=8, rs2=62, rs3=54, offset=0x0 (#8733670497657)
                   3: cluster0-socket0-core0-issue0-dispatch: wid=0, sid=1, PC=0xf7ca8c92, ex=SFU, op=CSRRW, tmask=10100010010010010011101001001110, wb=1, rd=48, rs1_data={0xe1940d76, 0x59b46507, 0x9ce68773, 0xcc29872, 0x13602518, 0x1652d3fa, 0x44657d0c, 0x4227c428, 0x74b2b2ed, 0xa5dc5af3, 0x4f8edf05, 0xbd7f66af, 0xec0be431, 0x26267ec, 0xb1c30043, 0x53b9da23, 0x604a643f, 0xac69241a, 0x5705dcf6, 0x98491f96, 0x3b66932b, 0x9e46cf0a, 0x2ee8db37, 0xda072c18, 0x9a7f229b, 0x82ec2a38, 0xb1874a15, 0x4080bc29, 0x4a393a6f, 0x41135eef, 0xfa5556e1, 0x829bef29}, rs2_data={0xe8e57de3, 0x3d02bd75, 0xa2b08001, 0xa885914b, 0x4917958c, 0xf940cdde, 0x9d310c77, 0xf304c91f, 0xe30c4efa, 0xe1866247, 0xac5de210, 0x91d094a7, 0xcf4b762f, 0x9f3ef093, 0x2aa0f8da, 0x7618d6fe, 0x8aa0a980, 0xae360d74, 0x98ef7ab7, 0x4aceb31, 0x74eed326, 0xf7ab5d73, 0xf8db1316, 0x5e84e117, 0x85b73f50, 0x82e7fd19, 0x997b5c2, 0xd2f64e92, 0x982350d5, 0xde209f90, 0x70d0be75, 0x8e5e2b8f}, rs3_data={0xf9a5d92a, 0x69585314, 0x5263156c, 0xad479c1e, 0xc0a8c498, 0x551adbf6, 0xaaacf870, 0x8e21e3, 0x56304a3c, 0x7efdb5ec, 0x9db823fd, 0x5fb262d9, 0xafe764dc, 0xecbf9606, 0x89708302, 0x72c8ef85, 0xb31d0a41, 0x75877941, 0x3ccd4c6f, 0xdfd8946a, 0xd11ce76, 0x49ca6a34, 0x35477398, 0xde418be, 0x42746a97, 0x2ce5a72b, 0xc2bceee5, 0x60a46f39, 0x893797f7, 0x4424e291, 0x6ae0c56c, 0xcaa3c109}, addr=0x9b, use_imm=0, imm=0x1e, sop=0, eop=0 (#11795769162373)
                   3: [VX_scoreboard] Issuing u-op. ISSUE_ID=0, sel_wis=2, ex_type=3, op_type=0x5, uuid=#11196965077110, PC=0xd6a2d914
                   3: cluster0-socket0-core0-fetch req: wid=0, PC=0x40fffbd8, tmask=00011001111011010101100110001111 (#15125311399445)
[tcu_uops]: step_m=0, step_n=1, step_k=1, rs1=1, rs2=c, rs3=19
                   3: [tcu_fp] Execute done, delay_pipe=10011
                   5: [tcu_fp] FEOP execution fired, uuid=#3599(#15458657136670)
                   5: cluster0-socket0-core0-schedule: wid=1, PC=0xbb7847b9, tmask=01110101100000110110010100110011 (#4508434713)
                   5: cluster0-socket0-core0-commit: wid=3, sid=0, PC=0x23b876ae, ex=ALU, tmask=10000010111110010011100110110101, wb=0, rd=7, sop=1, eop=1, data={0xbc210f3e, 0xd8438d03, 0xbd7f14db, 0xf8b30a42, 0x4ae9744, 0x20e58285, 0xc7758a06, 0xc7e8ba78, 0x8d5deb48, 0xeceff9db, 0xf63f76c5, 0x89946c9a, 0x879341e6, 0x8ac21980, 0x2cf6114e, 0x6d2365f7, 0xf72b6489, 0xeffdf237, 0x899254d5, 0x543c6c84, 0x9200290b, 0x7bbe5615, 0x47b456ad, 0xef84e041, 0xcae52764, 0x81d1fca7, 0xef329c40, 0x95db5e8e, 0xf5135c46, 0x2082abf5, 0xa0276a79, 0x3a3c36d6} (#7029438977255)
                   5: cluster0-socket0-core0-issue0-ibuffer: wid=3, PC=0x951b6c3c, ex=?, op=?, tmask=10010010111100111011010110111111, wb=1, used_rs=111, rd=44, rs1=34, rs2=0, rs3=23,  (#2726665493231)
                   7: cluster0-socket0-core0-schedule: wid=0, PC=0x4f9ff47b, tmask=00000000000000000000000000000001 (#0)
                   9: cluster0-socket0-core0-schedule: wid=0, PC=0x4f9ff47b, tmask=00000000000000000000000000000001 (#0)
                  11: cluster0-socket0-core0-schedule: wid=0, PC=0x4f9ff47b, tmask=00000000000000000000000000000001 (#0)
                  13: cluster0-socket0-core0-schedule: wid=0, PC=0x4f9ff47b, tmask=00000000000000000000000000000001 (#0)
                  15: cluster0-socket0-core0-schedule: wid=0, PC=0x4f9ff47b, tmask=00000000000000000000000000000001 (#0)
[VXDRV] DEV_OPEN: hdevice=0x5e5c5dfd4650
[VXDRV] DCR_WRITE: hdevice=0x5e5c5dfd4650, addr=0x1, value=0x80000000
STARTUP_ADDR0                  17: cluster0-socket0-core0-schedule: wid=0, PC=0x4f9ff47b, tmask=00000000000000000000000000000001 (#0)
                  19: cluster0-socket0-core0-schedule: wid=0, PC=0x4f9ff47b, tmask=00000000000000000000000000000001 (#0)
[VXDRV] DCR_WRITE: hdevice=0x5e5c5dfd4650, addr=0x2, value=0x0
STARTUP_ADDR1                  21: cluster0-socket0-core0-schedule: wid=0, PC=0x80000000, tmask=00000000000000000000000000000001 (#0)
                  23: cluster0-socket0-core0-schedule: wid=0, PC=0x80000000, tmask=00000000000000000000000000000001 (#0)
[VXDRV] DCR_WRITE: hdevice=0x5e5c5dfd4650, addr=0x3, value=0x0
STARTUP_ARG0                  25: cluster0-socket0-core0-schedule: wid=0, PC=0x80000000, tmask=00000000000000000000000000000001 (#0)
                  27: cluster0-socket0-core0-schedule: wid=0, PC=0x80000000, tmask=00000000000000000000000000000001 (#0)
[VXDRV] DCR_WRITE: hdevice=0x5e5c5dfd4650, addr=0x4, value=0x0
STARTUP_ARG1                  29: cluster0-socket0-core0-schedule: wid=0, PC=0x80000000, tmask=00000000000000000000000000000001 (#0)
                  31: cluster0-socket0-core0-schedule: wid=0, PC=0x80000000, tmask=00000000000000000000000000000001 (#0)
[VXDRV] DCR_WRITE: hdevice=0x5e5c5dfd4650, addr=0x5, value=0x0
MPM_CLASS                  33: cluster0-socket0-core0-schedule: wid=0, PC=0x80000000, tmask=00000000000000000000000000000001 (#0)
                  35: cluster0-socket0-core0-schedule: wid=0, PC=0x80000000, tmask=00000000000000000000000000000001 (#0)
[VXDRV] DEV_CAPS: hdevice=0x5e5c5dfd4650, caps_id=7, value=495004422432
[VXDRV] DEV_CAPS: hdevice=0x5e5c5dfd4650, caps_id=1, value=32
input data type: fp16 (id=1)
output data type: fp32 (id=0)
WMMA Core Dimension: M=8, N=4, K=4
WMMA Tile Dimension: M=16, N=16, K=32
matrix A: 32x64
matrix B: 64x32
matrix C: 32x32
allocate device memory
[VXDRV] MEM_ALLOC: hdevice=0x5e5c5dfd4650, size=4096, flags=0x1, hbuffer=0x5e5c5e127bb0
[VXDRV] MEM_ADDRESS: hbuffer=0x5e5c5e127bb0, address=0x10000
[VXDRV] MEM_ALLOC: hdevice=0x5e5c5dfd4650, size=4096, flags=0x1, hbuffer=0x5e5c5e127c10
[VXDRV] MEM_ADDRESS: hbuffer=0x5e5c5e127c10, address=0x11000
[VXDRV] MEM_ALLOC: hdevice=0x5e5c5dfd4650, size=4096, flags=0x2, hbuffer=0x5e5c5e127c70
[VXDRV] MEM_ADDRESS: hbuffer=0x5e5c5e127c70, address=0x12000
A_addr=0x10000
B_addr=0x11000
C_addr=0x12000
upload matrix A buffer
[VXDRV] COPY_TO_DEV: hbuffer=0x5e5c5e127bb0, host_addr=0x5e5c5e127c90, dst_offset=0, size=4096
upload matrix B buffer
[VXDRV] COPY_TO_DEV: hbuffer=0x5e5c5e127c10, host_addr=0x5e5c5e128ca0, dst_offset=0, size=4096
upload program
[VXDRV] MEM_RESERVE: hdevice=0x5e5c5dfd4650, address=0x80000000, size=30044, flags=0x0, hbuffer=0x5e5c5e135530
[VXDRV] MEM_ACCESS: hbuffer=0x5e5c5e135530, offset=0, size=30016, flags=1
[VXDRV] MEM_ACCESS: hbuffer=0x5e5c5e135530, offset=30016, size=28, flags=3
[VXDRV] COPY_TO_DEV: hbuffer=0x5e5c5e135530, host_addr=0x5e5c5e12df10, dst_offset=0, size=30016
upload kernel argument
[VXDRV] MEM_ALLOC: hdevice=0x5e5c5dfd4650, size=72, flags=0x1, hbuffer=0x5e5c5e12c010
[VXDRV] COPY_TO_DEV: hbuffer=0x5e5c5e12c010, host_addr=0x5e5c42d641c0, dst_offset=0, size=72
start device
[VXDRV] START: hdevice=0x5e5c5dfd4650, hkernel=0x5e5c5e135530, harguments=0x5e5c5e12c010
STARTUP_ADDR0                  37: cluster0-socket0-core0-schedule: wid=0, PC=0x80000000, tmask=00000000000000000000000000000001 (#0)
                  39: cluster0-socket0-core0-schedule: wid=0, PC=0x80000000, tmask=00000000000000000000000000000001 (#0)
STARTUP_ADDR1                  41: cluster0-socket0-core0-schedule: wid=0, PC=0x80000000, tmask=00000000000000000000000000000001 (#0)
                  43: cluster0-socket0-core0-schedule: wid=0, PC=0x80000000, tmask=00000000000000000000000000000001 (#0)
STARTUP_ARG0                  45: cluster0-socket0-core0-schedule: wid=0, PC=0x80000000, tmask=00000000000000000000000000000001 (#0)
                  47: cluster0-socket0-core0-schedule: wid=0, PC=0x80000000, tmask=00000000000000000000000000000001 (#0)
STARTUP_ARG1                  49: cluster0-socket0-core0-schedule: wid=0, PC=0x80000000, tmask=00000000000000000000000000000001 (#0)
                  51: cluster0-socket0-core0-schedule: wid=0, PC=0x80000000, tmask=00000000000000000000000000000001 (#0)
wait for completion
[VXDRV] READY_WAIT: hdevice=0x5e5c5dfd4650, timeout=86400000
52: [sim] run()
                  53: cluster0-socket0-core0-schedule: wid=0, PC=0x80000000, tmask=00000000000000000000000000000001 (#0)
                  55: cluster0-socket0-core0-schedule: wid=0, PC=0x80000000, tmask=00000000000000000000000000000001 (#0)
                  57: cluster0-socket0-core0-schedule: wid=0, PC=0x80000000, tmask=00000000000000000000000000000001 (#0)
                  59: cluster0-socket0-core0-schedule: wid=0, PC=0x80000000, tmask=00000000000000000000000000000001 (#0)
                  61: cluster0-socket0-core0-schedule: wid=0, PC=0x80000000, tmask=00000000000000000000000000000001 (#0)
                  63: cluster0-socket0-core0-schedule: wid=0, PC=0x80000000, tmask=00000000000000000000000000000001 (#0)
                  65: cluster0-socket0-core0-schedule: wid=0, PC=0x80000000, tmask=00000000000000000000000000000001 (#0)
                  67: cluster0-socket0-core0-schedule: wid=0, PC=0x80000000, tmask=00000000000000000000000000000001 (#0)
                  69: cluster0-socket0-core0-schedule: wid=0, PC=0x80000000, tmask=00000000000000000000000000000001 (#0)
                  71: cluster0-socket0-core0-schedule: wid=0, PC=0x80000000, tmask=00000000000000000000000000000001 (#0)
                  73: cluster0-socket0-core0-schedule: wid=0, PC=0x80000000, tmask=00000000000000000000000000000001 (#0)
                  75: cluster0-socket0-core0-schedule: wid=0, PC=0x80000000, tmask=00000000000000000000000000000001 (#0)
                  77: cluster0-socket0-core0-fetch req: wid=0, PC=0x80000000, tmask=00000000000000000000000000000001 (#0)
                 267: cluster0-socket0-core0-fetch rsp: wid=0, PC=0x80000000, tmask=00000000000000000000000000000001, instr=0xfc1022f3 (#0)
                 269: cluster0-socket0-core0-schedule: wid=0, PC=0x80000004, tmask=00000000000000000000000000000001 (#1)
                 269: cluster0-socket0-core0-issue0-ibuffer: wid=0, PC=0x80000000, ex=SFU, op=CSRRS, tmask=00000000000000000000000000000001, wb=1, used_rs=001, rd=5, rs1=0, rs2=62, rs3=54, addr=0xfc1, use_imm=0, imm=0x7 (#0)
                 271: cluster0-socket0-core0-fetch req: wid=0, PC=0x80000004, tmask=00000000000000000000000000000001 (#1)
                 273: [VX_scoreboard] Issuing u-op. ISSUE_ID=0, sel_wis=0, ex_type=2, op_type=0x7, uuid=#0, PC=0x80000000
                 279: cluster0-socket0-core0-issue0-dispatch: wid=0, sid=0, PC=0x80000000, ex=SFU, op=CSRRS, tmask=00000000000000000000000000000001, wb=1, rd=5, rs1_data={0x0, 0x0, 0x0, 0x0, 0x0, 0x0, 0x0, 0x0, 0x0, 0x0, 0x0, 0x0, 0x0, 0x0, 0x0, 0x0, 0x0, 0x0, 0x0, 0x0, 0x0, 0x0, 0x0, 0x0, 0x0, 0x0, 0x0, 0x0, 0x0, 0x0, 0x0, 0x0}, rs2_data={0x0, 0x0, 0x0, 0x0, 0x0, 0x0, 0x0, 0x0, 0x0, 0x0, 0x0, 0x0, 0x0, 0x0, 0x0, 0x0, 0x0, 0x0, 0x0, 0x0, 0x0, 0x0, 0x0, 0x0, 0x0, 0x0, 0x0, 0x0, 0x0, 0x0, 0x0, 0x0}, rs3_data={0x0, 0x0, 0x0, 0x0, 0x0, 0x0, 0x0, 0x0, 0x0, 0x0, 0x0, 0x0, 0x0, 0x0, 0x0, 0x0, 0x0, 0x0, 0x0, 0x0, 0x0, 0x0, 0x0, 0x0, 0x0, 0x0, 0x0, 0x0, 0x0, 0x0, 0x0, 0x0}, addr=0xfc1, use_imm=0, imm=0x7, sop=1, eop=1 (#0)
                 279: cluster0-socket0-core0-fetch rsp: wid=0, PC=0x80000004, tmask=00000000000000000000000000000001, instr=0x317 (#1)
                 281: cluster0-socket0-core0-schedule: wid=0, PC=0x80000008, tmask=00000000000000000000000000000001 (#2)
                 281: cluster0-socket0-core0-issue0-ibuffer: wid=0, PC=0x80000004, ex=ALU, op=AUIPC, tmask=00000000000000000000000000000001, wb=1, used_rs=000, rd=6, rs1=8, rs2=62, rs3=54, use_PC=1, use_imm=1, imm=0x0 (#1)
                 283: cluster0-socket0-core0-fetch req: wid=0, PC=0x80000008, tmask=00000000000000000000000000000001 (#2)
                 285: [VX_scoreboard] Issuing u-op. ISSUE_ID=0, sel_wis=0, ex_type=0, op_type=0x3, uuid=#1, PC=0x80000004
                 289: cluster0-socket0-core0-commit: wid=0, sid=0, PC=0x80000000, ex=SFU, tmask=00000000000000000000000000000001, wb=1, rd=5, sop=1, eop=1, data={0x4, 0x4, 0x4, 0x4, 0x4, 0x4, 0x4, 0x4, 0x4, 0x4, 0x4, 0x4, 0x4, 0x4, 0x4, 0x4, 0x4, 0x4, 0x4, 0x4, 0x4, 0x4, 0x4, 0x4, 0x4, 0x4, 0x4, 0x4, 0x4, 0x4, 0x4, 0x4} (#0)
                 291: cluster0-socket0-core0-issue0-dispatch: wid=0, sid=0, PC=0x80000004, ex=ALU, op=AUIPC, tmask=00000000000000000000000000000001, wb=1, rd=6, rs1_data={0x0, 0x0, 0x0, 0x0, 0x0, 0x0, 0x0, 0x0, 0x0, 0x0, 0x0, 0x0, 0x0, 0x0, 0x0, 0x0, 0x0, 0x0, 0x0, 0x0, 0x0, 0x0, 0x0, 0x0, 0x0, 0x0, 0x0, 0x0, 0x0, 0x0, 0x0, 0x0}, rs2_data={0x0, 0x0, 0x0, 0x0, 0x0, 0x0, 0x0, 0x0, 0x0, 0x0, 0x0, 0x0, 0x0, 0x0, 0x0, 0x0, 0x0, 0x0, 0x0, 0x0, 0x0, 0x0, 0x0, 0x0, 0x0, 0x0, 0x0, 0x0, 0x0, 0x0, 0x0, 0x0}, rs3_data={0x0, 0x0, 0x0, 0x0, 0x0, 0x0, 0x0, 0x0, 0x0, 0x0, 0x0, 0x0, 0x0, 0x0, 0x0, 0x0, 0x0, 0x0, 0x0, 0x0, 0x0, 0x0, 0x0, 0x0, 0x0, 0x0, 0x0, 0x0, 0x0, 0x0, 0x0, 0x0}, use_PC=1, use_imm=1, imm=0x0, sop=1, eop=1 (#1)
                 291: cluster0-socket0-core0-fetch rsp: wid=0, PC=0x80000008, tmask=00000000000000000000000000000001, instr=0x3f830313 (#2)
                 293: cluster0-socket0-core0-schedule: wid=0, PC=0x8000000c, tmask=00000000000000000000000000000001 (#3)
                 293: cluster0-socket0-core0-issue0-ibuffer: wid=0, PC=0x80000008, ex=ALU, op=ADDI, tmask=00000000000000000000000000000001, wb=1, used_rs=001, rd=6, rs1=6, rs2=62, rs3=54, use_PC=0, use_imm=1, imm=0x3f8 (#2)
                 295: cluster0-socket0-core0-fetch req: wid=0, PC=0x8000000c, tmask=00000000000000000000000000000001 (#3)
                 297: cluster0-socket0-core0-commit: wid=0, sid=0, PC=0x80000004, ex=ALU, tmask=00000000000000000000000000000001, wb=1, rd=6, sop=1, eop=1, data={0x80000004, 0x80000004, 0x80000004, 0x80000004, 0x80000004, 0x80000004, 0x80000004, 0x80000004, 0x80000004, 0x80000004, 0x80000004, 0x80000004, 0x80000004, 0x80000004, 0x80000004, 0x80000004, 0x80000004, 0x80000004, 0x80000004, 0x80000004, 0x80000004, 0x80000004, 0x80000004, 0x80000004, 0x80000004, 0x80000004, 0x80000004, 0x80000004, 0x80000004, 0x80000004, 0x80000004, 0x80000004} (#1)
                 303: [VX_scoreboard] Issuing u-op. ISSUE_ID=0, sel_wis=0, ex_type=0, op_type=0x0, uuid=#2, PC=0x80000008
                 303: cluster0-socket0-core0-fetch rsp: wid=0, PC=0x8000000c, tmask=00000000000000000000000000000001, instr=0x62900b (#3)
                 305: cluster0-socket0-core0-issue0-ibuffer: wid=0, PC=0x8000000c, ex=SFU, op=WSPAWN, tmask=00000000000000000000000000000001, wb=0, used_rs=011, rd=1, rs1=5, rs2=6, rs3=54,  (#3)
                 309: cluster0-socket0-core0-issue0-dispatch: wid=0, sid=0, PC=0x80000008, ex=ALU, op=ADDI, tmask=00000000000000000000000000000001, wb=1, rd=6, rs1_data={0x0, 0x0, 0x0, 0x0, 0x0, 0x0, 0x0, 0x0, 0x0, 0x0, 0x0, 0x0, 0x0, 0x0, 0x0, 0x0, 0x0, 0x0, 0x0, 0x0, 0x0, 0x0, 0x0, 0x0, 0x0, 0x0, 0x0, 0x0, 0x0, 0x0, 0x0, 0x80000004}, rs2_data={0x0, 0x0, 0x0, 0x0, 0x0, 0x0, 0x0, 0x0, 0x0, 0x0, 0x0, 0x0, 0x0, 0x0, 0x0, 0x0, 0x0, 0x0, 0x0, 0x0, 0x0, 0x0, 0x0, 0x0, 0x0, 0x0, 0x0, 0x0, 0x0, 0x0, 0x0, 0x0}, rs3_data={0x0, 0x0, 0x0, 0x0, 0x0, 0x0, 0x0, 0x0, 0x0, 0x0, 0x0, 0x0, 0x0, 0x0, 0x0, 0x0, 0x0, 0x0, 0x0, 0x0, 0x0, 0x0, 0x0, 0x0, 0x0, 0x0, 0x0, 0x0, 0x0, 0x0, 0x0, 0x0}, use_PC=0, use_imm=1, imm=0x3f8, sop=1, eop=1 (#2)
                 315: cluster0-socket0-core0-commit: wid=0, sid=0, PC=0x80000008, ex=ALU, tmask=00000000000000000000000000000001, wb=1, rd=6, sop=1, eop=1, data={0x3f8, 0x3f8, 0x3f8, 0x3f8, 0x3f8, 0x3f8, 0x3f8, 0x3f8, 0x3f8, 0x3f8, 0x3f8, 0x3f8, 0x3f8, 0x3f8, 0x3f8, 0x3f8, 0x3f8, 0x3f8, 0x3f8, 0x3f8, 0x3f8, 0x3f8, 0x3f8, 0x3f8, 0x3f8, 0x3f8, 0x3f8, 0x3f8, 0x3f8, 0x3f8, 0x3f8, 0x800003fc} (#2)
                 321: [VX_scoreboard] Issuing u-op. ISSUE_ID=0, sel_wis=0, ex_type=2, op_type=0x1, uuid=#3, PC=0x8000000c
                 327: cluster0-socket0-core0-issue0-dispatch: wid=0, sid=0, PC=0x8000000c, ex=SFU, op=WSPAWN, tmask=00000000000000000000000000000001, wb=0, rd=1, rs1_data={0x0, 0x0, 0x0, 0x0, 0x0, 0x0, 0x0, 0x0, 0x0, 0x0, 0x0, 0x0, 0x0, 0x0, 0x0, 0x0, 0x0, 0x0, 0x0, 0x0, 0x0, 0x0, 0x0, 0x0, 0x0, 0x0, 0x0, 0x0, 0x0, 0x0, 0x0, 0x4}, rs2_data={0x0, 0x0, 0x0, 0x0, 0x0, 0x0, 0x0, 0x0, 0x0, 0x0, 0x0, 0x0, 0x0, 0x0, 0x0, 0x0, 0x0, 0x0, 0x0, 0x0, 0x0, 0x0, 0x0, 0x0, 0x0, 0x0, 0x0, 0x0, 0x0, 0x0, 0x0, 0x800003fc}, rs3_data={0x0, 0x0, 0x0, 0x0, 0x0, 0x0, 0x0, 0x0, 0x0, 0x0, 0x0, 0x0, 0x0, 0x0, 0x0, 0x0, 0x0, 0x0, 0x0, 0x0, 0x0, 0x0, 0x0, 0x0, 0x0, 0x0, 0x0, 0x0, 0x0, 0x0, 0x0, 0x0}, , sop=1, eop=1 (#3)
                 337: cluster0-socket0-core0-schedule: wid=0, PC=0x80000010, tmask=00000000000000000000000000000001 (#4)
                 337: cluster0-socket0-core0-commit: wid=0, sid=0, PC=0x8000000c, ex=SFU, tmask=00000000000000000000000000000001, wb=0, rd=1, sop=1, eop=1, data={0x0, 0x0, 0x0, 0x0, 0x0, 0x0, 0x0, 0x0, 0x0, 0x0, 0x0, 0x0, 0x0, 0x0, 0x0, 0x0, 0x0, 0x0, 0x0, 0x0, 0x0, 0x0, 0x0, 0x0, 0x0, 0x0, 0x0, 0x0, 0x0, 0x0, 0x0, 0x0} (#3)
                 339: cluster0-socket0-core0-schedule: wid=1, PC=0x800003fc, tmask=00000000000000000000000000000001 (#4294967296)
                 339: cluster0-socket0-core0-fetch req: wid=0, PC=0x80000010, tmask=00000000000000000000000000000001 (#4)
                 341: cluster0-socket0-core0-schedule: wid=2, PC=0x800003fc, tmask=00000000000000000000000000000001 (#8589934592)
                 341: cluster0-socket0-core0-fetch req: wid=1, PC=0x800003fc, tmask=00000000000000000000000000000001 (#4294967296)
                 343: cluster0-socket0-core0-schedule: wid=3, PC=0x800003fc, tmask=00000000000000000000000000000001 (#12884901888)
                 343: cluster0-socket0-core0-fetch req: wid=2, PC=0x800003fc, tmask=00000000000000000000000000000001 (#8589934592)
                 345: cluster0-socket0-core0-fetch req: wid=3, PC=0x800003fc, tmask=00000000000000000000000000000001 (#12884901888)
                 347: cluster0-socket0-core0-fetch rsp: wid=0, PC=0x80000010, tmask=00000000000000000000000000000001, instr=0xfff00293 (#4)
                 349: cluster0-socket0-core0-schedule: wid=0, PC=0x80000014, tmask=00000000000000000000000000000001 (#5)
                 349: cluster0-socket0-core0-issue0-ibuffer: wid=0, PC=0x80000010, ex=ALU, op=ADDI, tmask=00000000000000000000000000000001, wb=1, used_rs=001, rd=5, rs1=0, rs2=62, rs3=54, use_PC=0, use_imm=1, imm=0xffffffff (#4)
                 351: cluster0-socket0-core0-fetch req: wid=0, PC=0x80000014, tmask=00000000000000000000000000000001 (#5)
                 353: [VX_scoreboard] Issuing u-op. ISSUE_ID=0, sel_wis=0, ex_type=0, op_type=0x0, uuid=#4, PC=0x80000010
                 359: cluster0-socket0-core0-issue0-dispatch: wid=0, sid=0, PC=0x80000010, ex=ALU, op=ADDI, tmask=00000000000000000000000000000001, wb=1, rd=5, rs1_data={0x0, 0x0, 0x0, 0x0, 0x0, 0x0, 0x0, 0x0, 0x0, 0x0, 0x0, 0x0, 0x0, 0x0, 0x0, 0x0, 0x0, 0x0, 0x0, 0x0, 0x0, 0x0, 0x0, 0x0, 0x0, 0x0, 0x0, 0x0, 0x0, 0x0, 0x0, 0x0}, rs2_data={0x0, 0x0, 0x0, 0x0, 0x0, 0x0, 0x0, 0x0, 0x0, 0x0, 0x0, 0x0, 0x0, 0x0, 0x0, 0x0, 0x0, 0x0, 0x0, 0x0, 0x0, 0x0, 0x0, 0x0, 0x0, 0x0, 0x0, 0x0, 0x0, 0x0, 0x0, 0x0}, rs3_data={0x0, 0x0, 0x0, 0x0, 0x0, 0x0, 0x0, 0x0, 0x0, 0x0, 0x0, 0x0, 0x0, 0x0, 0x0, 0x0, 0x0, 0x0, 0x0, 0x0, 0x0, 0x0, 0x0, 0x0, 0x0, 0x0, 0x0, 0x0, 0x0, 0x0, 0x0, 0x0}, use_PC=0, use_imm=1, imm=0xffffffff, sop=1, eop=1 (#4)
                 359: cluster0-socket0-core0-fetch rsp: wid=0, PC=0x80000014, tmask=00000000000000000000000000000001, instr=0x2800b (#5)
                 361: cluster0-socket0-core0-issue0-ibuffer: wid=0, PC=0x80000014, ex=SFU, op=TMC, tmask=00000000000000000000000000000001, wb=0, used_rs=001, rd=1, rs1=5, rs2=62, rs3=54,  (#5)
                 365: cluster0-socket0-core0-commit: wid=0, sid=0, PC=0x80000010, ex=ALU, tmask=00000000000000000000000000000001, wb=1, rd=5, sop=1, eop=1, data={0xffffffff, 0xffffffff, 0xffffffff, 0xffffffff, 0xffffffff, 0xffffffff, 0xffffffff, 0xffffffff, 0xffffffff, 0xffffffff, 0xffffffff, 0xffffffff, 0xffffffff, 0xffffffff, 0xffffffff, 0xffffffff, 0xffffffff, 0xffffffff, 0xffffffff, 0xffffffff, 0xffffffff, 0xffffffff, 0xffffffff, 0xffffffff, 0xffffffff, 0xffffffff, 0xffffffff, 0xffffffff, 0xffffffff, 0xffffffff, 0xffffffff, 0xffffffff} (#4)
                 371: [VX_scoreboard] Issuing u-op. ISSUE_ID=0, sel_wis=0, ex_type=2, op_type=0x0, uuid=#5, PC=0x80000014
                 377: cluster0-socket0-core0-issue0-dispatch: wid=0, sid=0, PC=0x80000014, ex=SFU, op=TMC, tmask=00000000000000000000000000000001, wb=0, rd=1, rs1_data={0x0, 0x0, 0x0, 0x0, 0x0, 0x0, 0x0, 0x0, 0x0, 0x0, 0x0, 0x0, 0x0, 0x0, 0x0, 0x0, 0x0, 0x0, 0x0, 0x0, 0x0, 0x0, 0x0, 0x0, 0x0, 0x0, 0x0, 0x0, 0x0, 0x0, 0x0, 0xffffffff}, rs2_data={0x0, 0x0, 0x0, 0x0, 0x0, 0x0, 0x0, 0x0, 0x0, 0x0, 0x0, 0x0, 0x0, 0x0, 0x0, 0x0, 0x0, 0x0, 0x0, 0x0, 0x0, 0x0, 0x0, 0x0, 0x0, 0x0, 0x0, 0x0, 0x0, 0x0, 0x0, 0x0}, rs3_data={0x0, 0x0, 0x0, 0x0, 0x0, 0x0, 0x0, 0x0, 0x0, 0x0, 0x0, 0x0, 0x0, 0x0, 0x0, 0x0, 0x0, 0x0, 0x0, 0x0, 0x0, 0x0, 0x0, 0x0, 0x0, 0x0, 0x0, 0x0, 0x0, 0x0, 0x0, 0x0}, , sop=1, eop=1 (#5)
                 385: cluster0-socket0-core0-schedule: wid=0, PC=0x80000018, tmask=11111111111111111111111111111111 (#6)
                 387: cluster0-socket0-core0-commit: wid=0, sid=0, PC=0x80000014, ex=SFU, tmask=00000000000000000000000000000001, wb=0, rd=1, sop=1, eop=1, data={0x0, 0x0, 0x0, 0x0, 0x0, 0x0, 0x0, 0x0, 0x0, 0x0, 0x0, 0x0, 0x0, 0x0, 0x0, 0x0, 0x0, 0x0, 0x0, 0x0, 0x0, 0x0, 0x0, 0x0, 0x0, 0x0, 0x0, 0x0, 0x0, 0x0, 0x0, 0x0} (#5)
                 387: cluster0-socket0-core0-fetch req: wid=0, PC=0x80000018, tmask=11111111111111111111111111111111 (#6)
                 393: cluster0-socket0-core0-fetch rsp: wid=1, PC=0x800003fc, tmask=00000000000000000000000000000001, instr=0xfff00293 (#4294967296)
                 395: cluster0-socket0-core0-schedule: wid=1, PC=0x80000400, tmask=00000000000000000000000000000001 (#4294967297)
                 395: cluster0-socket0-core0-issue0-ibuffer: wid=1, PC=0x800003fc, ex=ALU, op=ADDI, tmask=00000000000000000000000000000001, wb=1, used_rs=001, rd=5, rs1=0, rs2=62, rs3=54, use_PC=0, use_imm=1, imm=0xffffffff (#4294967296)
                 395: cluster0-socket0-core0-fetch rsp: wid=2, PC=0x800003fc, tmask=00000000000000000000000000000001, instr=0xfff00293 (#8589934592)
                 397: cluster0-socket0-core0-schedule: wid=2, PC=0x80000400, tmask=00000000000000000000000000000001 (#8589934593)
                 397: cluster0-socket0-core0-issue0-ibuffer: wid=2, PC=0x800003fc, ex=ALU, op=ADDI, tmask=00000000000000000000000000000001, wb=1, used_rs=001, rd=5, rs1=0, rs2=62, rs3=54, use_PC=0, use_imm=1, imm=0xffffffff (#8589934592)
                 397: cluster0-socket0-core0-fetch req: wid=1, PC=0x80000400, tmask=00000000000000000000000000000001 (#4294967297)
                 397: cluster0-socket0-core0-fetch rsp: wid=3, PC=0x800003fc, tmask=00000000000000000000000000000001, instr=0xfff00293 (#12884901888)
                 399: cluster0-socket0-core0-schedule: wid=3, PC=0x80000400, tmask=00000000000000000000000000000001 (#12884901889)
                 399: cluster0-socket0-core0-issue0-ibuffer: wid=3, PC=0x800003fc, ex=ALU, op=ADDI, tmask=00000000000000000000000000000001, wb=1, used_rs=001, rd=5, rs1=0, rs2=62, rs3=54, use_PC=0, use_imm=1, imm=0xffffffff (#12884901888)
                 399: [VX_scoreboard] Issuing u-op. ISSUE_ID=0, sel_wis=1, ex_type=0, op_type=0x0, uuid=#4294967296, PC=0x800003fc
                 399: cluster0-socket0-core0-fetch req: wid=2, PC=0x80000400, tmask=00000000000000000000000000000001 (#8589934593)
                 399: cluster0-socket0-core0-fetch rsp: wid=0, PC=0x80000018, tmask=11111111111111111111111111111111, instr=0x3b4000ef (#6)
                 401: cluster0-socket0-core0-issue0-ibuffer: wid=0, PC=0x80000018, ex=ALU, op=JAL, tmask=11111111111111111111111111111111, wb=1, used_rs=000, rd=1, rs1=8, rs2=62, rs3=54, use_PC=1, use_imm=1, imm=0x3b4 (#6)
                 401: [VX_scoreboard] Issuing u-op. ISSUE_ID=0, sel_wis=2, ex_type=0, op_type=0x0, uuid=#8589934592, PC=0x800003fc
                 401: cluster0-socket0-core0-fetch req: wid=3, PC=0x80000400, tmask=00000000000000000000000000000001 (#12884901889)
                 403: [VX_scoreboard] Issuing u-op. ISSUE_ID=0, sel_wis=3, ex_type=0, op_type=0x0, uuid=#12884901888, PC=0x800003fc
                 405: cluster0-socket0-core0-issue0-dispatch: wid=1, sid=0, PC=0x800003fc, ex=ALU, op=ADDI, tmask=00000000000000000000000000000001, wb=1, rd=5, rs1_data={0x0, 0x0, 0x0, 0x0, 0x0, 0x0, 0x0, 0x0, 0x0, 0x0, 0x0, 0x0, 0x0, 0x0, 0x0, 0x0, 0x0, 0x0, 0x0, 0x0, 0x0, 0x0, 0x0, 0x0, 0x0, 0x0, 0x0, 0x0, 0x0, 0x0, 0x0, 0x0}, rs2_data={0x0, 0x0, 0x0, 0x0, 0x0, 0x0, 0x0, 0x0, 0x0, 0x0, 0x0, 0x0, 0x0, 0x0, 0x0, 0x0, 0x0, 0x0, 0x0, 0x0, 0x0, 0x0, 0x0, 0x0, 0x0, 0x0, 0x0, 0x0, 0x0, 0x0, 0x0, 0x0}, rs3_data={0x0, 0x0, 0x0, 0x0, 0x0, 0x0, 0x0, 0x0, 0x0, 0x0, 0x0, 0x0, 0x0, 0x0, 0x0, 0x0, 0x0, 0x0, 0x0, 0x0, 0x0, 0x0, 0x0, 0x0, 0x0, 0x0, 0x0, 0x0, 0x0, 0x0, 0x0, 0x0}, use_PC=0, use_imm=1, imm=0xffffffff, sop=1, eop=1 (#4294967296)
                 405: [VX_scoreboard] Issuing u-op. ISSUE_ID=0, sel_wis=0, ex_type=0, op_type=0x8, uuid=#6, PC=0x80000018
                 407: cluster0-socket0-core0-issue0-dispatch: wid=2, sid=0, PC=0x800003fc, ex=ALU, op=ADDI, tmask=00000000000000000000000000000001, wb=1, rd=5, rs1_data={0x0, 0x0, 0x0, 0x0, 0x0, 0x0, 0x0, 0x0, 0x0, 0x0, 0x0, 0x0, 0x0, 0x0, 0x0, 0x0, 0x0, 0x0, 0x0, 0x0, 0x0, 0x0, 0x0, 0x0, 0x0, 0x0, 0x0, 0x0, 0x0, 0x0, 0x0, 0x0}, rs2_data={0x0, 0x0, 0x0, 0x0, 0x0, 0x0, 0x0, 0x0, 0x0, 0x0, 0x0, 0x0, 0x0, 0x0, 0x0, 0x0, 0x0, 0x0, 0x0, 0x0, 0x0, 0x0, 0x0, 0x0, 0x0, 0x0, 0x0, 0x0, 0x0, 0x0, 0x0, 0x0}, rs3_data={0x0, 0x0, 0x0, 0x0, 0x0, 0x0, 0x0, 0x0, 0x0, 0x0, 0x0, 0x0, 0x0, 0x0, 0x0, 0x0, 0x0, 0x0, 0x0, 0x0, 0x0, 0x0, 0x0, 0x0, 0x0, 0x0, 0x0, 0x0, 0x0, 0x0, 0x0, 0x0}, use_PC=0, use_imm=1, imm=0xffffffff, sop=1, eop=1 (#8589934592)
                 409: cluster0-socket0-core0-issue0-dispatch: wid=3, sid=0, PC=0x800003fc, ex=ALU, op=ADDI, tmask=00000000000000000000000000000001, wb=1, rd=5, rs1_data={0x0, 0x0, 0x0, 0x0, 0x0, 0x0, 0x0, 0x0, 0x0, 0x0, 0x0, 0x0, 0x0, 0x0, 0x0, 0x0, 0x0, 0x0, 0x0, 0x0, 0x0, 0x0, 0x0, 0x0, 0x0, 0x0, 0x0, 0x0, 0x0, 0x0, 0x0, 0x0}, rs2_data={0x0, 0x0, 0x0, 0x0, 0x0, 0x0, 0x0, 0x0, 0x0, 0x0, 0x0, 0x0, 0x0, 0x0, 0x0, 0x0, 0x0, 0x0, 0x0, 0x0, 0x0, 0x0, 0x0, 0x0, 0x0, 0x0, 0x0, 0x0, 0x0, 0x0, 0x0, 0x0}, rs3_data={0x0, 0x0, 0x0, 0x0, 0x0, 0x0, 0x0, 0x0, 0x0, 0x0, 0x0, 0x0, 0x0, 0x0, 0x0, 0x0, 0x0, 0x0, 0x0, 0x0, 0x0, 0x0, 0x0, 0x0, 0x0, 0x0, 0x0, 0x0, 0x0, 0x0, 0x0, 0x0}, use_PC=0, use_imm=1, imm=0xffffffff, sop=1, eop=1 (#12884901888)
                 411: cluster0-socket0-core0-commit: wid=1, sid=0, PC=0x800003fc, ex=ALU, tmask=00000000000000000000000000000001, wb=1, rd=5, sop=1, eop=1, data={0xffffffff, 0xffffffff, 0xffffffff, 0xffffffff, 0xffffffff, 0xffffffff, 0xffffffff, 0xffffffff, 0xffffffff, 0xffffffff, 0xffffffff, 0xffffffff, 0xffffffff, 0xffffffff, 0xffffffff, 0xffffffff, 0xffffffff, 0xffffffff, 0xffffffff, 0xffffffff, 0xffffffff, 0xffffffff, 0xffffffff, 0xffffffff, 0xffffffff, 0xffffffff, 0xffffffff, 0xffffffff, 0xffffffff, 0xffffffff, 0xffffffff, 0xffffffff} (#4294967296)
                 411: cluster0-socket0-core0-issue0-dispatch: wid=0, sid=0, PC=0x80000018, ex=ALU, op=JAL, tmask=11111111111111111111111111111111, wb=1, rd=1, rs1_data={0x0, 0x0, 0x0, 0x0, 0x0, 0x0, 0x0, 0x0, 0x0, 0x0, 0x0, 0x0, 0x0, 0x0, 0x0, 0x0, 0x0, 0x0, 0x0, 0x0, 0x0, 0x0, 0x0, 0x0, 0x0, 0x0, 0x0, 0x0, 0x0, 0x0, 0x0, 0x0}, rs2_data={0x0, 0x0, 0x0, 0x0, 0x0, 0x0, 0x0, 0x0, 0x0, 0x0, 0x0, 0x0, 0x0, 0x0, 0x0, 0x0, 0x0, 0x0, 0x0, 0x0, 0x0, 0x0, 0x0, 0x0, 0x0, 0x0, 0x0, 0x0, 0x0, 0x0, 0x0, 0x0}, rs3_data={0x0, 0x0, 0x0, 0x0, 0x0, 0x0, 0x0, 0x0, 0x0, 0x0, 0x0, 0x0, 0x0, 0x0, 0x0, 0x0, 0x0, 0x0, 0x0, 0x0, 0x0, 0x0, 0x0, 0x0, 0x0, 0x0, 0x0, 0x0, 0x0, 0x0, 0x0, 0x0}, use_PC=1, use_imm=1, imm=0x3b4, sop=1, eop=1 (#6)
                 413: cluster0-socket0-core0-commit: wid=2, sid=0, PC=0x800003fc, ex=ALU, tmask=00000000000000000000000000000001, wb=1, rd=5, sop=1, eop=1, data={0xffffffff, 0xffffffff, 0xffffffff, 0xffffffff, 0xffffffff, 0xffffffff, 0xffffffff, 0xffffffff, 0xffffffff, 0xffffffff, 0xffffffff, 0xffffffff, 0xffffffff, 0xffffffff, 0xffffffff, 0xffffffff, 0xffffffff, 0xffffffff, 0xffffffff, 0xffffffff, 0xffffffff, 0xffffffff, 0xffffffff, 0xffffffff, 0xffffffff, 0xffffffff, 0xffffffff, 0xffffffff, 0xffffffff, 0xffffffff, 0xffffffff, 0xffffffff} (#8589934592)
                 415: cluster0-socket0-core0-commit: wid=3, sid=0, PC=0x800003fc, ex=ALU, tmask=00000000000000000000000000000001, wb=1, rd=5, sop=1, eop=1, data={0xffffffff, 0xffffffff, 0xffffffff, 0xffffffff, 0xffffffff, 0xffffffff, 0xffffffff, 0xffffffff, 0xffffffff, 0xffffffff, 0xffffffff, 0xffffffff, 0xffffffff, 0xffffffff, 0xffffffff, 0xffffffff, 0xffffffff, 0xffffffff, 0xffffffff, 0xffffffff, 0xffffffff, 0xffffffff, 0xffffffff, 0xffffffff, 0xffffffff, 0xffffffff, 0xffffffff, 0xffffffff, 0xffffffff, 0xffffffff, 0xffffffff, 0xffffffff} (#12884901888)
                 417: cluster0-socket0-core0-commit: wid=0, sid=0, PC=0x80000018, ex=ALU, tmask=11111111111111111111111111111111, wb=1, rd=1, sop=1, eop=1, data={0x8000001c, 0x8000001c, 0x8000001c, 0x8000001c, 0x8000001c, 0x8000001c, 0x8000001c, 0x8000001c, 0x8000001c, 0x8000001c, 0x8000001c, 0x8000001c, 0x8000001c, 0x8000001c, 0x8000001c, 0x8000001c, 0x8000001c, 0x8000001c, 0x8000001c, 0x8000001c, 0x8000001c, 0x8000001c, 0x8000001c, 0x8000001c, 0x8000001c, 0x8000001c, 0x8000001c, 0x8000001c, 0x8000001c, 0x8000001c, 0x8000001c, 0x8000001c} (#6)
                 419: cluster0-socket0-core0-schedule: wid=0, PC=0x800003cc, tmask=11111111111111111111111111111111 (#7)
                 421: cluster0-socket0-core0-fetch req: wid=0, PC=0x800003cc, tmask=11111111111111111111111111111111 (#7)
                 429: cluster0-socket0-core0-fetch rsp: wid=0, PC=0x800003cc, tmask=11111111111111111111111111111111, instr=0x8197 (#7)
                 431: cluster0-socket0-core0-schedule: wid=0, PC=0x800003d0, tmask=11111111111111111111111111111111 (#8)
                 431: cluster0-socket0-core0-issue0-ibuffer: wid=0, PC=0x800003cc, ex=ALU, op=AUIPC, tmask=11111111111111111111111111111111, wb=1, used_rs=000, rd=3, rs1=8, rs2=62, rs3=54, use_PC=1, use_imm=1, imm=0x8000 (#7)
                 433: cluster0-socket0-core0-fetch req: wid=0, PC=0x800003d0, tmask=11111111111111111111111111111111 (#8)
                 435: [VX_scoreboard] Issuing u-op. ISSUE_ID=0, sel_wis=0, ex_type=0, op_type=0x3, uuid=#7, PC=0x800003cc
                 441: cluster0-socket0-core0-issue0-dispatch: wid=0, sid=0, PC=0x800003cc, ex=ALU, op=AUIPC, tmask=11111111111111111111111111111111, wb=1, rd=3, rs1_data={0x0, 0x0, 0x0, 0x0, 0x0, 0x0, 0x0, 0x0, 0x0, 0x0, 0x0, 0x0, 0x0, 0x0, 0x0, 0x0, 0x0, 0x0, 0x0, 0x0, 0x0, 0x0, 0x0, 0x0, 0x0, 0x0, 0x0, 0x0, 0x0, 0x0, 0x0, 0x0}, rs2_data={0x0, 0x0, 0x0, 0x0, 0x0, 0x0, 0x0, 0x0, 0x0, 0x0, 0x0, 0x0, 0x0, 0x0, 0x0, 0x0, 0x0, 0x0, 0x0, 0x0, 0x0, 0x0, 0x0, 0x0, 0x0, 0x0, 0x0, 0x0, 0x0, 0x0, 0x0, 0x0}, rs3_data={0x0, 0x0, 0x0, 0x0, 0x0, 0x0, 0x0, 0x0, 0x0, 0x0, 0x0, 0x0, 0x0, 0x0, 0x0, 0x0, 0x0, 0x0, 0x0, 0x0, 0x0, 0x0, 0x0, 0x0, 0x0, 0x0, 0x0, 0x0, 0x0, 0x0, 0x0, 0x0}, use_PC=1, use_imm=1, imm=0x8000, sop=1, eop=1 (#7)
                 441: cluster0-socket0-core0-fetch rsp: wid=0, PC=0x800003d0, tmask=11111111111111111111111111111111, instr=0x8c018193 (#8)
                 443: cluster0-socket0-core0-schedule: wid=0, PC=0x800003d4, tmask=11111111111111111111111111111111 (#9)
                 443: cluster0-socket0-core0-issue0-ibuffer: wid=0, PC=0x800003d0, ex=ALU, op=ADDI, tmask=11111111111111111111111111111111, wb=1, used_rs=001, rd=3, rs1=3, rs2=62, rs3=54, use_PC=0, use_imm=1, imm=0xfffff8c0 (#8)
                 445: cluster0-socket0-core0-fetch req: wid=0, PC=0x800003d4, tmask=11111111111111111111111111111111 (#9)
                 447: cluster0-socket0-core0-commit: wid=0, sid=0, PC=0x800003cc, ex=ALU, tmask=11111111111111111111111111111111, wb=1, rd=3, sop=1, eop=1, data={0x800083cc, 0x800083cc, 0x800083cc, 0x800083cc, 0x800083cc, 0x800083cc, 0x800083cc, 0x800083cc, 0x800083cc, 0x800083cc, 0x800083cc, 0x800083cc, 0x800083cc, 0x800083cc, 0x800083cc, 0x800083cc, 0x800083cc, 0x800083cc, 0x800083cc, 0x800083cc, 0x800083cc, 0x800083cc, 0x800083cc, 0x800083cc, 0x800083cc, 0x800083cc, 0x800083cc, 0x800083cc, 0x800083cc, 0x800083cc, 0x800083cc, 0x800083cc} (#7)
                 449: cluster0-socket0-core0-fetch rsp: wid=1, PC=0x80000400, tmask=00000000000000000000000000000001, instr=0x2800b (#4294967297)
                 451: cluster0-socket0-core0-issue0-ibuffer: wid=1, PC=0x80000400, ex=SFU, op=TMC, tmask=00000000000000000000000000000001, wb=0, used_rs=001, rd=1, rs1=5, rs2=62, rs3=54,  (#4294967297)
                 451: cluster0-socket0-core0-fetch rsp: wid=2, PC=0x80000400, tmask=00000000000000000000000000000001, instr=0x2800b (#8589934593)
                 453: cluster0-socket0-core0-issue0-ibuffer: wid=2, PC=0x80000400, ex=SFU, op=TMC, tmask=00000000000000000000000000000001, wb=0, used_rs=001, rd=1, rs1=5, rs2=62, rs3=54,  (#8589934593)
                 453: [VX_scoreboard] Issuing u-op. ISSUE_ID=0, sel_wis=0, ex_type=0, op_type=0x0, uuid=#8, PC=0x800003d0
                 453: cluster0-socket0-core0-fetch rsp: wid=3, PC=0x80000400, tmask=00000000000000000000000000000001, instr=0x2800b (#12884901889)
                 455: cluster0-socket0-core0-issue0-ibuffer: wid=3, PC=0x80000400, ex=SFU, op=TMC, tmask=00000000000000000000000000000001, wb=0, used_rs=001, rd=1, rs1=5, rs2=62, rs3=54,  (#12884901889)
                 455: [VX_scoreboard] Issuing u-op. ISSUE_ID=0, sel_wis=1, ex_type=2, op_type=0x0, uuid=#4294967297, PC=0x80000400
                 455: cluster0-socket0-core0-fetch rsp: wid=0, PC=0x800003d4, tmask=11111111111111111111111111111111, instr=0xffff0137 (#9)
                 457: cluster0-socket0-core0-schedule: wid=0, PC=0x800003d8, tmask=11111111111111111111111111111111 (#10)
                 457: cluster0-socket0-core0-issue0-ibuffer: wid=0, PC=0x800003d4, ex=ALU, op=LUI, tmask=11111111111111111111111111111111, wb=1, used_rs=000, rd=2, rs1=8, rs2=62, rs3=54, use_PC=0, use_imm=1, imm=0xffff0000 (#9)
                 457: [VX_scoreboard] Issuing u-op. ISSUE_ID=0, sel_wis=2, ex_type=2, op_type=0x0, uuid=#8589934593, PC=0x80000400
                 459: cluster0-socket0-core0-issue0-dispatch: wid=0, sid=0, PC=0x800003d0, ex=ALU, op=ADDI, tmask=11111111111111111111111111111111, wb=1, rd=3, rs1_data={0x800083cc, 0x800083cc, 0x800083cc, 0x800083cc, 0x800083cc, 0x800083cc, 0x800083cc, 0x800083cc, 0x800083cc, 0x800083cc, 0x800083cc, 0x800083cc, 0x800083cc, 0x800083cc, 0x800083cc, 0x800083cc, 0x800083cc, 0x800083cc, 0x800083cc, 0x800083cc, 0x800083cc, 0x800083cc, 0x800083cc, 0x800083cc, 0x800083cc, 0x800083cc, 0x800083cc, 0x800083cc, 0x800083cc, 0x800083cc, 0x800083cc, 0x800083cc}, rs2_data={0x0, 0x0, 0x0, 0x0, 0x0, 0x0, 0x0, 0x0, 0x0, 0x0, 0x0, 0x0, 0x0, 0x0, 0x0, 0x0, 0x0, 0x0, 0x0, 0x0, 0x0, 0x0, 0x0, 0x0, 0x0, 0x0, 0x0, 0x0, 0x0, 0x0, 0x0, 0x0}, rs3_data={0x0, 0x0, 0x0, 0x0, 0x0, 0x0, 0x0, 0x0, 0x0, 0x0, 0x0, 0x0, 0x0, 0x0, 0x0, 0x0, 0x0, 0x0, 0x0, 0x0, 0x0, 0x0, 0x0, 0x0, 0x0, 0x0, 0x0, 0x0, 0x0, 0x0, 0x0, 0x0}, use_PC=0, use_imm=1, imm=0xfffff8c0, sop=1, eop=1 (#8)
                 459: [VX_scoreboard] Issuing u-op. ISSUE_ID=0, sel_wis=3, ex_type=2, op_type=0x0, uuid=#12884901889, PC=0x80000400
                 459: cluster0-socket0-core0-fetch req: wid=0, PC=0x800003d8, tmask=11111111111111111111111111111111 (#10)
                 461: cluster0-socket0-core0-issue0-dispatch: wid=1, sid=0, PC=0x80000400, ex=SFU, op=TMC, tmask=00000000000000000000000000000001, wb=0, rd=1, rs1_data={0x0, 0x0, 0x0, 0x0, 0x0, 0x0, 0x0, 0x0, 0x0, 0x0, 0x0, 0x0, 0x0, 0x0, 0x0, 0x0, 0x0, 0x0, 0x0, 0x0, 0x0, 0x0, 0x0, 0x0, 0x0, 0x0, 0x0, 0x0, 0x0, 0x0, 0x0, 0xffffffff}, rs2_data={0x0, 0x0, 0x0, 0x0, 0x0, 0x0, 0x0, 0x0, 0x0, 0x0, 0x0, 0x0, 0x0, 0x0, 0x0, 0x0, 0x0, 0x0, 0x0, 0x0, 0x0, 0x0, 0x0, 0x0, 0x0, 0x0, 0x0, 0x0, 0x0, 0x0, 0x0, 0x0}, rs3_data={0x0, 0x0, 0x0, 0x0, 0x0, 0x0, 0x0, 0x0, 0x0, 0x0, 0x0, 0x0, 0x0, 0x0, 0x0, 0x0, 0x0, 0x0, 0x0, 0x0, 0x0, 0x0, 0x0, 0x0, 0x0, 0x0, 0x0, 0x0, 0x0, 0x0, 0x0, 0x0}, , sop=1, eop=1 (#4294967297)
                 461: [VX_scoreboard] Issuing u-op. ISSUE_ID=0, sel_wis=0, ex_type=0, op_type=0x2, uuid=#9, PC=0x800003d4
                 463: cluster0-socket0-core0-issue0-dispatch: wid=2, sid=0, PC=0x80000400, ex=SFU, op=TMC, tmask=00000000000000000000000000000001, wb=0, rd=1, rs1_data={0x0, 0x0, 0x0, 0x0, 0x0, 0x0, 0x0, 0x0, 0x0, 0x0, 0x0, 0x0, 0x0, 0x0, 0x0, 0x0, 0x0, 0x0, 0x0, 0x0, 0x0, 0x0, 0x0, 0x0, 0x0, 0x0, 0x0, 0x0, 0x0, 0x0, 0x0, 0xffffffff}, rs2_data={0x0, 0x0, 0x0, 0x0, 0x0, 0x0, 0x0, 0x0, 0x0, 0x0, 0x0, 0x0, 0x0, 0x0, 0x0, 0x0, 0x0, 0x0, 0x0, 0x0, 0x0, 0x0, 0x0, 0x0, 0x0, 0x0, 0x0, 0x0, 0x0, 0x0, 0x0, 0x0}, rs3_data={0x0, 0x0, 0x0, 0x0, 0x0, 0x0, 0x0, 0x0, 0x0, 0x0, 0x0, 0x0, 0x0, 0x0, 0x0, 0x0, 0x0, 0x0, 0x0, 0x0, 0x0, 0x0, 0x0, 0x0, 0x0, 0x0, 0x0, 0x0, 0x0, 0x0, 0x0, 0x0}, , sop=1, eop=1 (#8589934593)
                 465: cluster0-socket0-core0-commit: wid=0, sid=0, PC=0x800003d0, ex=ALU, tmask=11111111111111111111111111111111, wb=1, rd=3, sop=1, eop=1, data={0x80007c8c, 0x80007c8c, 0x80007c8c, 0x80007c8c, 0x80007c8c, 0x80007c8c, 0x80007c8c, 0x80007c8c, 0x80007c8c, 0x80007c8c, 0x80007c8c, 0x80007c8c, 0x80007c8c, 0x80007c8c, 0x80007c8c, 0x80007c8c, 0x80007c8c, 0x80007c8c, 0x80007c8c, 0x80007c8c, 0x80007c8c, 0x80007c8c, 0x80007c8c, 0x80007c8c, 0x80007c8c, 0x80007c8c, 0x80007c8c, 0x80007c8c, 0x80007c8c, 0x80007c8c, 0x80007c8c, 0x80007c8c} (#8)
                 465: cluster0-socket0-core0-issue0-dispatch: wid=3, sid=0, PC=0x80000400, ex=SFU, op=TMC, tmask=00000000000000000000000000000001, wb=0, rd=1, rs1_data={0x0, 0x0, 0x0, 0x0, 0x0, 0x0, 0x0, 0x0, 0x0, 0x0, 0x0, 0x0, 0x0, 0x0, 0x0, 0x0, 0x0, 0x0, 0x0, 0x0, 0x0, 0x0, 0x0, 0x0, 0x0, 0x0, 0x0, 0x0, 0x0, 0x0, 0x0, 0xffffffff}, rs2_data={0x0, 0x0, 0x0, 0x0, 0x0, 0x0, 0x0, 0x0, 0x0, 0x0, 0x0, 0x0, 0x0, 0x0, 0x0, 0x0, 0x0, 0x0, 0x0, 0x0, 0x0, 0x0, 0x0, 0x0, 0x0, 0x0, 0x0, 0x0, 0x0, 0x0, 0x0, 0x0}, rs3_data={0x0, 0x0, 0x0, 0x0, 0x0, 0x0, 0x0, 0x0, 0x0, 0x0, 0x0, 0x0, 0x0, 0x0, 0x0, 0x0, 0x0, 0x0, 0x0, 0x0, 0x0, 0x0, 0x0, 0x0, 0x0, 0x0, 0x0, 0x0, 0x0, 0x0, 0x0, 0x0}, , sop=1, eop=1 (#12884901889)
                 467: cluster0-socket0-core0-issue0-dispatch: wid=0, sid=0, PC=0x800003d4, ex=ALU, op=LUI, tmask=11111111111111111111111111111111, wb=1, rd=2, rs1_data={0x0, 0x0, 0x0, 0x0, 0x0, 0x0, 0x0, 0x0, 0x0, 0x0, 0x0, 0x0, 0x0, 0x0, 0x0, 0x0, 0x0, 0x0, 0x0, 0x0, 0x0, 0x0, 0x0, 0x0, 0x0, 0x0, 0x0, 0x0, 0x0, 0x0, 0x0, 0x0}, rs2_data={0x0, 0x0, 0x0, 0x0, 0x0, 0x0, 0x0, 0x0, 0x0, 0x0, 0x0, 0x0, 0x0, 0x0, 0x0, 0x0, 0x0, 0x0, 0x0, 0x0, 0x0, 0x0, 0x0, 0x0, 0x0, 0x0, 0x0, 0x0, 0x0, 0x0, 0x0, 0x0}, rs3_data={0x0, 0x0, 0x0, 0x0, 0x0, 0x0, 0x0, 0x0, 0x0, 0x0, 0x0, 0x0, 0x0, 0x0, 0x0, 0x0, 0x0, 0x0, 0x0, 0x0, 0x0, 0x0, 0x0, 0x0, 0x0, 0x0, 0x0, 0x0, 0x0, 0x0, 0x0, 0x0}, use_PC=0, use_imm=1, imm=0xffff0000, sop=1, eop=1 (#9)
                 467: cluster0-socket0-core0-fetch rsp: wid=0, PC=0x800003d8, tmask=11111111111111111111111111111111, instr=0xf14022f3 (#10)
                 469: cluster0-socket0-core0-schedule: wid=0, PC=0x800003dc, tmask=11111111111111111111111111111111 (#11)
                 469: cluster0-socket0-core0-issue0-ibuffer: wid=0, PC=0x800003d8, ex=SFU, op=CSRRS, tmask=11111111111111111111111111111111, wb=1, used_rs=001, rd=5, rs1=0, rs2=62, rs3=54, addr=0xf14, use_imm=0, imm=0x7 (#10)
                 471: cluster0-socket0-core0-schedule: wid=1, PC=0x80000404, tmask=11111111111111111111111111111111 (#4294967298)
                 471: cluster0-socket0-core0-commit: wid=1, sid=0, PC=0x80000400, ex=SFU, tmask=00000000000000000000000000000001, wb=0, rd=1, sop=1, eop=1, data={0x0, 0x0, 0x0, 0x0, 0x0, 0x0, 0x0, 0x0, 0x0, 0x0, 0x0, 0x0, 0x0, 0x0, 0x0, 0x0, 0x0, 0x0, 0x0, 0x0, 0x0, 0x0, 0x0, 0x0, 0x0, 0x0, 0x0, 0x0, 0x0, 0x0, 0x0, 0x0} (#4294967297)
                 471: cluster0-socket0-core0-fetch req: wid=0, PC=0x800003dc, tmask=11111111111111111111111111111111 (#11)
                 473: cluster0-socket0-core0-schedule: wid=2, PC=0x80000404, tmask=11111111111111111111111111111111 (#8589934594)
                 473: cluster0-socket0-core0-commit: wid=0, sid=0, PC=0x800003d4, ex=ALU, tmask=11111111111111111111111111111111, wb=1, rd=2, sop=1, eop=1, data={0xffff0000, 0xffff0000, 0xffff0000, 0xffff0000, 0xffff0000, 0xffff0000, 0xffff0000, 0xffff0000, 0xffff0000, 0xffff0000, 0xffff0000, 0xffff0000, 0xffff0000, 0xffff0000, 0xffff0000, 0xffff0000, 0xffff0000, 0xffff0000, 0xffff0000, 0xffff0000, 0xffff0000, 0xffff0000, 0xffff0000, 0xffff0000, 0xffff0000, 0xffff0000, 0xffff0000, 0xffff0000, 0xffff0000, 0xffff0000, 0xffff0000, 0xffff0000} (#9)
                 473: [VX_scoreboard] Issuing u-op. ISSUE_ID=0, sel_wis=0, ex_type=2, op_type=0x7, uuid=#10, PC=0x800003d8
                 473: cluster0-socket0-core0-fetch req: wid=1, PC=0x80000404, tmask=11111111111111111111111111111111 (#4294967298)
                 475: cluster0-socket0-core0-schedule: wid=3, PC=0x80000404, tmask=11111111111111111111111111111111 (#12884901890)
                 475: cluster0-socket0-core0-commit: wid=2, sid=0, PC=0x80000400, ex=SFU, tmask=00000000000000000000000000000001, wb=0, rd=1, sop=1, eop=1, data={0x0, 0x0, 0x0, 0x0, 0x0, 0x0, 0x0, 0x0, 0x0, 0x0, 0x0, 0x0, 0x0, 0x0, 0x0, 0x0, 0x0, 0x0, 0x0, 0x0, 0x0, 0x0, 0x0, 0x0, 0x0, 0x0, 0x0, 0x0, 0x0, 0x0, 0x0, 0x0} (#8589934593)
                 475: cluster0-socket0-core0-fetch req: wid=2, PC=0x80000404, tmask=11111111111111111111111111111111 (#8589934594)
                 477: cluster0-socket0-core0-commit: wid=3, sid=0, PC=0x80000400, ex=SFU, tmask=00000000000000000000000000000001, wb=0, rd=1, sop=1, eop=1, data={0x0, 0x0, 0x0, 0x0, 0x0, 0x0, 0x0, 0x0, 0x0, 0x0, 0x0, 0x0, 0x0, 0x0, 0x0, 0x0, 0x0, 0x0, 0x0, 0x0, 0x0, 0x0, 0x0, 0x0, 0x0, 0x0, 0x0, 0x0, 0x0, 0x0, 0x0, 0x0} (#12884901889)
                 477: cluster0-socket0-core0-fetch req: wid=3, PC=0x80000404, tmask=11111111111111111111111111111111 (#12884901890)
                 479: cluster0-socket0-core0-issue0-dispatch: wid=0, sid=0, PC=0x800003d8, ex=SFU, op=CSRRS, tmask=11111111111111111111111111111111, wb=1, rd=5, rs1_data={0x0, 0x0, 0x0, 0x0, 0x0, 0x0, 0x0, 0x0, 0x0, 0x0, 0x0, 0x0, 0x0, 0x0, 0x0, 0x0, 0x0, 0x0, 0x0, 0x0, 0x0, 0x0, 0x0, 0x0, 0x0, 0x0, 0x0, 0x0, 0x0, 0x0, 0x0, 0x0}, rs2_data={0x0, 0x0, 0x0, 0x0, 0x0, 0x0, 0x0, 0x0, 0x0, 0x0, 0x0, 0x0, 0x0, 0x0, 0x0, 0x0, 0x0, 0x0, 0x0, 0x0, 0x0, 0x0, 0x0, 0x0, 0x0, 0x0, 0x0, 0x0, 0x0, 0x0, 0x0, 0x0}, rs3_data={0x0, 0x0, 0x0, 0x0, 0x0, 0x0, 0x0, 0x0, 0x0, 0x0, 0x0, 0x0, 0x0, 0x0, 0x0, 0x0, 0x0, 0x0, 0x0, 0x0, 0x0, 0x0, 0x0, 0x0, 0x0, 0x0, 0x0, 0x0, 0x0, 0x0, 0x0, 0x0}, addr=0xf14, use_imm=0, imm=0x7, sop=1, eop=1 (#10)
                 479: cluster0-socket0-core0-fetch rsp: wid=0, PC=0x800003dc, tmask=11111111111111111111111111111111, instr=0xd29313 (#11)
                 481: cluster0-socket0-core0-schedule: wid=0, PC=0x800003e0, tmask=11111111111111111111111111111111 (#12)
                 481: cluster0-socket0-core0-issue0-ibuffer: wid=0, PC=0x800003dc, ex=ALU, op=SLLI, tmask=11111111111111111111111111111111, wb=1, used_rs=001, rd=6, rs1=5, rs2=62, rs3=54, use_PC=0, use_imm=1, imm=0xd (#11)
                 481: cluster0-socket0-core0-fetch rsp: wid=1, PC=0x80000404, tmask=11111111111111111111111111111111, instr=0xfc9ff0ef (#4294967298)
                 483: cluster0-socket0-core0-issue0-ibuffer: wid=1, PC=0x80000404, ex=ALU, op=JAL, tmask=11111111111111111111111111111111, wb=1, used_rs=000, rd=1, rs1=8, rs2=62, rs3=54, use_PC=1, use_imm=1, imm=0xffffffc8 (#4294967298)
                 483: cluster0-socket0-core0-fetch req: wid=0, PC=0x800003e0, tmask=11111111111111111111111111111111 (#12)
                 483: cluster0-socket0-core0-fetch rsp: wid=2, PC=0x80000404, tmask=11111111111111111111111111111111, instr=0xfc9ff0ef (#8589934594)
                 485: cluster0-socket0-core0-issue0-ibuffer: wid=2, PC=0x80000404, ex=ALU, op=JAL, tmask=11111111111111111111111111111111, wb=1, used_rs=000, rd=1, rs1=8, rs2=62, rs3=54, use_PC=1, use_imm=1, imm=0xffffffc8 (#8589934594)
                 485: cluster0-socket0-core0-fetch rsp: wid=3, PC=0x80000404, tmask=11111111111111111111111111111111, instr=0xfc9ff0ef (#12884901890)
                 487: cluster0-socket0-core0-issue0-ibuffer: wid=3, PC=0x80000404, ex=ALU, op=JAL, tmask=11111111111111111111111111111111, wb=1, used_rs=000, rd=1, rs1=8, rs2=62, rs3=54, use_PC=1, use_imm=1, imm=0xffffffc8 (#12884901890)
                 487: [VX_scoreboard] Issuing u-op. ISSUE_ID=0, sel_wis=1, ex_type=0, op_type=0x8, uuid=#4294967298, PC=0x80000404
                 489: cluster0-socket0-core0-commit: wid=0, sid=0, PC=0x800003d8, ex=SFU, tmask=11111111111111111111111111111111, wb=1, rd=5, sop=1, eop=1, data={0x1f, 0x1e, 0x1d, 0x1c, 0x1b, 0x1a, 0x19, 0x18, 0x17, 0x16, 0x15, 0x14, 0x13, 0x12, 0x11, 0x10, 0xf, 0xe, 0xd, 0xc, 0xb, 0xa, 0x9, 0x8, 0x7, 0x6, 0x5, 0x4, 0x3, 0x2, 0x1, 0x0} (#10)
                 489: [VX_scoreboard] Issuing u-op. ISSUE_ID=0, sel_wis=2, ex_type=0, op_type=0x8, uuid=#8589934594, PC=0x80000404
                 491: [VX_scoreboard] Issuing u-op. ISSUE_ID=0, sel_wis=3, ex_type=0, op_type=0x8, uuid=#12884901890, PC=0x80000404
                 491: cluster0-socket0-core0-fetch rsp: wid=0, PC=0x800003e0, tmask=11111111111111111111111111111111, instr=0x40610133 (#12)
                 493: cluster0-socket0-core0-schedule: wid=0, PC=0x800003e4, tmask=11111111111111111111111111111111 (#13)
                 493: cluster0-socket0-core0-issue0-ibuffer: wid=0, PC=0x800003e0, ex=ALU, op=SUB, tmask=11111111111111111111111111111111, wb=1, used_rs=011, rd=2, rs1=2, rs2=6, rs3=54, use_PC=0, use_imm=0, imm=0x68bf2327 (#12)
                 493: cluster0-socket0-core0-issue0-dispatch: wid=1, sid=0, PC=0x80000404, ex=ALU, op=JAL, tmask=11111111111111111111111111111111, wb=1, rd=1, rs1_data={0x0, 0x0, 0x0, 0x0, 0x0, 0x0, 0x0, 0x0, 0x0, 0x0, 0x0, 0x0, 0x0, 0x0, 0x0, 0x0, 0x0, 0x0, 0x0, 0x0, 0x0, 0x0, 0x0, 0x0, 0x0, 0x0, 0x0, 0x0, 0x0, 0x0, 0x0, 0x0}, rs2_data={0x0, 0x0, 0x0, 0x0, 0x0, 0x0, 0x0, 0x0, 0x0, 0x0, 0x0, 0x0, 0x0, 0x0, 0x0, 0x0, 0x0, 0x0, 0x0, 0x0, 0x0, 0x0, 0x0, 0x0, 0x0, 0x0, 0x0, 0x0, 0x0, 0x0, 0x0, 0x0}, rs3_data={0x0, 0x0, 0x0, 0x0, 0x0, 0x0, 0x0, 0x0, 0x0, 0x0, 0x0, 0x0, 0x0, 0x0, 0x0, 0x0, 0x0, 0x0, 0x0, 0x0, 0x0, 0x0, 0x0, 0x0, 0x0, 0x0, 0x0, 0x0, 0x0, 0x0, 0x0, 0x0}, use_PC=1, use_imm=1, imm=0xffffffc8, sop=1, eop=1 (#4294967298)
                 495: cluster0-socket0-core0-issue0-dispatch: wid=2, sid=0, PC=0x80000404, ex=ALU, op=JAL, tmask=11111111111111111111111111111111, wb=1, rd=1, rs1_data={0x0, 0x0, 0x0, 0x0, 0x0, 0x0, 0x0, 0x0, 0x0, 0x0, 0x0, 0x0, 0x0, 0x0, 0x0, 0x0, 0x0, 0x0, 0x0, 0x0, 0x0, 0x0, 0x0, 0x0, 0x0, 0x0, 0x0, 0x0, 0x0, 0x0, 0x0, 0x0}, rs2_data={0x0, 0x0, 0x0, 0x0, 0x0, 0x0, 0x0, 0x0, 0x0, 0x0, 0x0, 0x0, 0x0, 0x0, 0x0, 0x0, 0x0, 0x0, 0x0, 0x0, 0x0, 0x0, 0x0, 0x0, 0x0, 0x0, 0x0, 0x0, 0x0, 0x0, 0x0, 0x0}, rs3_data={0x0, 0x0, 0x0, 0x0, 0x0, 0x0, 0x0, 0x0, 0x0, 0x0, 0x0, 0x0, 0x0, 0x0, 0x0, 0x0, 0x0, 0x0, 0x0, 0x0, 0x0, 0x0, 0x0, 0x0, 0x0, 0x0, 0x0, 0x0, 0x0, 0x0, 0x0, 0x0}, use_PC=1, use_imm=1, imm=0xffffffc8, sop=1, eop=1 (#8589934594)
                 495: [VX_scoreboard] Issuing u-op. ISSUE_ID=0, sel_wis=0, ex_type=0, op_type=0xf, uuid=#11, PC=0x800003dc
                 495: cluster0-socket0-core0-fetch req: wid=0, PC=0x800003e4, tmask=11111111111111111111111111111111 (#13)
                 497: cluster0-socket0-core0-issue0-dispatch: wid=3, sid=0, PC=0x80000404, ex=ALU, op=JAL, tmask=11111111111111111111111111111111, wb=1, rd=1, rs1_data={0x0, 0x0, 0x0, 0x0, 0x0, 0x0, 0x0, 0x0, 0x0, 0x0, 0x0, 0x0, 0x0, 0x0, 0x0, 0x0, 0x0, 0x0, 0x0, 0x0, 0x0, 0x0, 0x0, 0x0, 0x0, 0x0, 0x0, 0x0, 0x0, 0x0, 0x0, 0x0}, rs2_data={0x0, 0x0, 0x0, 0x0, 0x0, 0x0, 0x0, 0x0, 0x0, 0x0, 0x0, 0x0, 0x0, 0x0, 0x0, 0x0, 0x0, 0x0, 0x0, 0x0, 0x0, 0x0, 0x0, 0x0, 0x0, 0x0, 0x0, 0x0, 0x0, 0x0, 0x0, 0x0}, rs3_data={0x0, 0x0, 0x0, 0x0, 0x0, 0x0, 0x0, 0x0, 0x0, 0x0, 0x0, 0x0, 0x0, 0x0, 0x0, 0x0, 0x0, 0x0, 0x0, 0x0, 0x0, 0x0, 0x0, 0x0, 0x0, 0x0, 0x0, 0x0, 0x0, 0x0, 0x0, 0x0}, use_PC=1, use_imm=1, imm=0xffffffc8, sop=1, eop=1 (#12884901890)
                 499: cluster0-socket0-core0-commit: wid=1, sid=0, PC=0x80000404, ex=ALU, tmask=11111111111111111111111111111111, wb=1, rd=1, sop=1, eop=1, data={0x80000408, 0x80000408, 0x80000408, 0x80000408, 0x80000408, 0x80000408, 0x80000408, 0x80000408, 0x80000408, 0x80000408, 0x80000408, 0x80000408, 0x80000408, 0x80000408, 0x80000408, 0x80000408, 0x80000408, 0x80000408, 0x80000408, 0x80000408, 0x80000408, 0x80000408, 0x80000408, 0x80000408, 0x80000408, 0x80000408, 0x80000408, 0x80000408, 0x80000408, 0x80000408, 0x80000408, 0x80000408} (#4294967298)
                 501: cluster0-socket0-core0-schedule: wid=1, PC=0x800003cc, tmask=11111111111111111111111111111111 (#4294967299)
                 501: cluster0-socket0-core0-commit: wid=2, sid=0, PC=0x80000404, ex=ALU, tmask=11111111111111111111111111111111, wb=1, rd=1, sop=1, eop=1, data={0x80000408, 0x80000408, 0x80000408, 0x80000408, 0x80000408, 0x80000408, 0x80000408, 0x80000408, 0x80000408, 0x80000408, 0x80000408, 0x80000408, 0x80000408, 0x80000408, 0x80000408, 0x80000408, 0x80000408, 0x80000408, 0x80000408, 0x80000408, 0x80000408, 0x80000408, 0x80000408, 0x80000408, 0x80000408, 0x80000408, 0x80000408, 0x80000408, 0x80000408, 0x80000408, 0x80000408, 0x80000408} (#8589934594)
                 501: cluster0-socket0-core0-issue0-dispatch: wid=0, sid=0, PC=0x800003dc, ex=ALU, op=SLLI, tmask=11111111111111111111111111111111, wb=1, rd=6, rs1_data={0x1f, 0x1e, 0x1d, 0x1c, 0x1b, 0x1a, 0x19, 0x18, 0x17, 0x16, 0x15, 0x14, 0x13, 0x12, 0x11, 0x10, 0xf, 0xe, 0xd, 0xc, 0xb, 0xa, 0x9, 0x8, 0x7, 0x6, 0x5, 0x4, 0x3, 0x2, 0x1, 0x0}, rs2_data={0x0, 0x0, 0x0, 0x0, 0x0, 0x0, 0x0, 0x0, 0x0, 0x0, 0x0, 0x0, 0x0, 0x0, 0x0, 0x0, 0x0, 0x0, 0x0, 0x0, 0x0, 0x0, 0x0, 0x0, 0x0, 0x0, 0x0, 0x0, 0x0, 0x0, 0x0, 0x0}, rs3_data={0x0, 0x0, 0x0, 0x0, 0x0, 0x0, 0x0, 0x0, 0x0, 0x0, 0x0, 0x0, 0x0, 0x0, 0x0, 0x0, 0x0, 0x0, 0x0, 0x0, 0x0, 0x0, 0x0, 0x0, 0x0, 0x0, 0x0, 0x0, 0x0, 0x0, 0x0, 0x0}, use_PC=0, use_imm=1, imm=0xd, sop=1, eop=1 (#11)
                 503: cluster0-socket0-core0-schedule: wid=2, PC=0x800003cc, tmask=11111111111111111111111111111111 (#8589934595)
                 503: cluster0-socket0-core0-commit: wid=3, sid=0, PC=0x80000404, ex=ALU, tmask=11111111111111111111111111111111, wb=1, rd=1, sop=1, eop=1, data={0x80000408, 0x80000408, 0x80000408, 0x80000408, 0x80000408, 0x80000408, 0x80000408, 0x80000408, 0x80000408, 0x80000408, 0x80000408, 0x80000408, 0x80000408, 0x80000408, 0x80000408, 0x80000408, 0x80000408, 0x80000408, 0x80000408, 0x80000408, 0x80000408, 0x80000408, 0x80000408, 0x80000408, 0x80000408, 0x80000408, 0x80000408, 0x80000408, 0x80000408, 0x80000408, 0x80000408, 0x80000408} (#12884901890)
                 503: cluster0-socket0-core0-fetch req: wid=1, PC=0x800003cc, tmask=11111111111111111111111111111111 (#4294967299)
                 503: cluster0-socket0-core0-fetch rsp: wid=0, PC=0x800003e4, tmask=11111111111111111111111111111111, instr=0x1c00313 (#13)
                 505: cluster0-socket0-core0-schedule: wid=0, PC=0x800003e8, tmask=11111111111111111111111111111111 (#14)
                 505: cluster0-socket0-core0-fetch req: wid=2, PC=0x800003cc, tmask=11111111111111111111111111111111 (#8589934595)
                 507: cluster0-socket0-core0-schedule: wid=3, PC=0x800003cc, tmask=11111111111111111111111111111111 (#12884901891)
                 507: cluster0-socket0-core0-commit: wid=0, sid=0, PC=0x800003dc, ex=ALU, tmask=11111111111111111111111111111111, wb=1, rd=6, sop=1, eop=1, data={0x3e000, 0x3c000, 0x3a000, 0x38000, 0x36000, 0x34000, 0x32000, 0x30000, 0x2e000, 0x2c000, 0x2a000, 0x28000, 0x26000, 0x24000, 0x22000, 0x20000, 0x1e000, 0x1c000, 0x1a000, 0x18000, 0x16000, 0x14000, 0x12000, 0x10000, 0xe000, 0xc000, 0xa000, 0x8000, 0x6000, 0x4000, 0x2000, 0x0} (#11)
                 507: cluster0-socket0-core0-fetch req: wid=0, PC=0x800003e8, tmask=11111111111111111111111111111111 (#14)
                 509: cluster0-socket0-core0-fetch req: wid=3, PC=0x800003cc, tmask=11111111111111111111111111111111 (#12884901891)
                 511: cluster0-socket0-core0-issue0-ibuffer: wid=0, PC=0x800003e4, ex=ALU, op=ADDI, tmask=11111111111111111111111111111111, wb=1, used_rs=001, rd=6, rs1=0, rs2=62, rs3=54, use_PC=0, use_imm=1, imm=0x1c (#13)
                 511: cluster0-socket0-core0-fetch rsp: wid=1, PC=0x800003cc, tmask=11111111111111111111111111111111, instr=0x8197 (#4294967299)
                 513: cluster0-socket0-core0-schedule: wid=1, PC=0x800003d0, tmask=11111111111111111111111111111111 (#4294967300)
                 513: cluster0-socket0-core0-issue0-ibuffer: wid=1, PC=0x800003cc, ex=ALU, op=AUIPC, tmask=11111111111111111111111111111111, wb=1, used_rs=000, rd=3, rs1=8, rs2=62, rs3=54, use_PC=1, use_imm=1, imm=0x8000 (#4294967299)
                 513: cluster0-socket0-core0-fetch rsp: wid=2, PC=0x800003cc, tmask=11111111111111111111111111111111, instr=0x8197 (#8589934595)
                 515: cluster0-socket0-core0-schedule: wid=2, PC=0x800003d0, tmask=11111111111111111111111111111111 (#8589934596)
                 515: cluster0-socket0-core0-issue0-ibuffer: wid=2, PC=0x800003cc, ex=ALU, op=AUIPC, tmask=11111111111111111111111111111111, wb=1, used_rs=000, rd=3, rs1=8, rs2=62, rs3=54, use_PC=1, use_imm=1, imm=0x8000 (#8589934595)
                 515: [VX_scoreboard] Issuing u-op. ISSUE_ID=0, sel_wis=0, ex_type=0, op_type=0x7, uuid=#12, PC=0x800003e0
                 515: cluster0-socket0-core0-fetch req: wid=1, PC=0x800003d0, tmask=11111111111111111111111111111111 (#4294967300)
                 515: cluster0-socket0-core0-fetch rsp: wid=0, PC=0x800003e8, tmask=11111111111111111111111111111111, instr=0x26282b3 (#14)
                 517: cluster0-socket0-core0-schedule: wid=0, PC=0x800003ec, tmask=11111111111111111111111111111111 (#15)
                 517: cluster0-socket0-core0-issue0-ibuffer: wid=0, PC=0x800003e8, ex=ALU, op=MUL, tmask=11111111111111111111111111111111, wb=1, used_rs=011, rd=5, rs1=5, rs2=6, rs3=54, use_PC=0, use_imm=0, imm=0x68bf2327 (#14)
                 517: [VX_scoreboard] Issuing u-op. ISSUE_ID=0, sel_wis=0, ex_type=0, op_type=0x0, uuid=#13, PC=0x800003e4
                 517: cluster0-socket0-core0-fetch req: wid=2, PC=0x800003d0, tmask=11111111111111111111111111111111 (#8589934596)
                 517: cluster0-socket0-core0-fetch rsp: wid=3, PC=0x800003cc, tmask=11111111111111111111111111111111, instr=0x8197 (#12884901891)
                 519: cluster0-socket0-core0-schedule: wid=3, PC=0x800003d0, tmask=11111111111111111111111111111111 (#12884901892)
                 519: cluster0-socket0-core0-issue0-ibuffer: wid=3, PC=0x800003cc, ex=ALU, op=AUIPC, tmask=11111111111111111111111111111111, wb=1, used_rs=000, rd=3, rs1=8, rs2=62, rs3=54, use_PC=1, use_imm=1, imm=0x8000 (#12884901891)
                 519: [VX_scoreboard] Issuing u-op. ISSUE_ID=0, sel_wis=1, ex_type=0, op_type=0x3, uuid=#4294967299, PC=0x800003cc
                 519: cluster0-socket0-core0-fetch req: wid=0, PC=0x800003ec, tmask=11111111111111111111111111111111 (#15)
                 521: cluster0-socket0-core0-issue0-dispatch: wid=0, sid=0, PC=0x800003e0, ex=ALU, op=SUB, tmask=11111111111111111111111111111111, wb=1, rd=2, rs1_data={0xffff0000, 0xffff0000, 0xffff0000, 0xffff0000, 0xffff0000, 0xffff0000, 0xffff0000, 0xffff0000, 0xffff0000, 0xffff0000, 0xffff0000, 0xffff0000, 0xffff0000, 0xffff0000, 0xffff0000, 0xffff0000, 0xffff0000, 0xffff0000, 0xffff0000, 0xffff0000, 0xffff0000, 0xffff0000, 0xffff0000, 0xffff0000, 0xffff0000, 0xffff0000, 0xffff0000, 0xffff0000, 0xffff0000, 0xffff0000, 0xffff0000, 0xffff0000}, rs2_data={0x3e000, 0x3c000, 0x3a000, 0x38000, 0x36000, 0x34000, 0x32000, 0x30000, 0x2e000, 0x2c000, 0x2a000, 0x28000, 0x26000, 0x24000, 0x22000, 0x20000, 0x1e000, 0x1c000, 0x1a000, 0x18000, 0x16000, 0x14000, 0x12000, 0x10000, 0xe000, 0xc000, 0xa000, 0x8000, 0x6000, 0x4000, 0x2000, 0x0}, rs3_data={0x0, 0x0, 0x0, 0x0, 0x0, 0x0, 0x0, 0x0, 0x0, 0x0, 0x0, 0x0, 0x0, 0x0, 0x0, 0x0, 0x0, 0x0, 0x0, 0x0, 0x0, 0x0, 0x0, 0x0, 0x0, 0x0, 0x0, 0x0, 0x0, 0x0, 0x0, 0x0}, use_PC=0, use_imm=0, imm=0x68bf2327, sop=1, eop=1 (#12)
                 521: [VX_scoreboard] Issuing u-op. ISSUE_ID=0, sel_wis=2, ex_type=0, op_type=0x3, uuid=#8589934595, PC=0x800003cc
                 521: cluster0-socket0-core0-fetch req: wid=3, PC=0x800003d0, tmask=11111111111111111111111111111111 (#12884901892)
                 523: cluster0-socket0-core0-issue0-dispatch: wid=0, sid=0, PC=0x800003e4, ex=ALU, op=ADDI, tmask=11111111111111111111111111111111, wb=1, rd=6, rs1_data={0x0, 0x0, 0x0, 0x0, 0x0, 0x0, 0x0, 0x0, 0x0, 0x0, 0x0, 0x0, 0x0, 0x0, 0x0, 0x0, 0x0, 0x0, 0x0, 0x0, 0x0, 0x0, 0x0, 0x0, 0x0, 0x0, 0x0, 0x0, 0x0, 0x0, 0x0, 0x0}, rs2_data={0x0, 0x0, 0x0, 0x0, 0x0, 0x0, 0x0, 0x0, 0x0, 0x0, 0x0, 0x0, 0x0, 0x0, 0x0, 0x0, 0x0, 0x0, 0x0, 0x0, 0x0, 0x0, 0x0, 0x0, 0x0, 0x0, 0x0, 0x0, 0x0, 0x0, 0x0, 0x0}, rs3_data={0x0, 0x0, 0x0, 0x0, 0x0, 0x0, 0x0, 0x0, 0x0, 0x0, 0x0, 0x0, 0x0, 0x0, 0x0, 0x0, 0x0, 0x0, 0x0, 0x0, 0x0, 0x0, 0x0, 0x0, 0x0, 0x0, 0x0, 0x0, 0x0, 0x0, 0x0, 0x0}, use_PC=0, use_imm=1, imm=0x1c, sop=1, eop=1 (#13)
                 523: [VX_scoreboard] Issuing u-op. ISSUE_ID=0, sel_wis=3, ex_type=0, op_type=0x3, uuid=#12884901891, PC=0x800003cc
                 523: cluster0-socket0-core0-fetch rsp: wid=1, PC=0x800003d0, tmask=11111111111111111111111111111111, instr=0x8c018193 (#4294967300)
                 525: cluster0-socket0-core0-schedule: wid=1, PC=0x800003d4, tmask=11111111111111111111111111111111 (#4294967301)
                 525: cluster0-socket0-core0-issue0-ibuffer: wid=1, PC=0x800003d0, ex=ALU, op=ADDI, tmask=11111111111111111111111111111111, wb=1, used_rs=001, rd=3, rs1=3, rs2=62, rs3=54, use_PC=0, use_imm=1, imm=0xfffff8c0 (#4294967300)
                 525: cluster0-socket0-core0-issue0-dispatch: wid=1, sid=0, PC=0x800003cc, ex=ALU, op=AUIPC, tmask=11111111111111111111111111111111, wb=1, rd=3, rs1_data={0x0, 0x0, 0x0, 0x0, 0x0, 0x0, 0x0, 0x0, 0x0, 0x0, 0x0, 0x0, 0x0, 0x0, 0x0, 0x0, 0x0, 0x0, 0x0, 0x0, 0x0, 0x0, 0x0, 0x0, 0x0, 0x0, 0x0, 0x0, 0x0, 0x0, 0x0, 0x0}, rs2_data={0x0, 0x0, 0x0, 0x0, 0x0, 0x0, 0x0, 0x0, 0x0, 0x0, 0x0, 0x0, 0x0, 0x0, 0x0, 0x0, 0x0, 0x0, 0x0, 0x0, 0x0, 0x0, 0x0, 0x0, 0x0, 0x0, 0x0, 0x0, 0x0, 0x0, 0x0, 0x0}, rs3_data={0x0, 0x0, 0x0, 0x0, 0x0, 0x0, 0x0, 0x0, 0x0, 0x0, 0x0, 0x0, 0x0, 0x0, 0x0, 0x0, 0x0, 0x0, 0x0, 0x0, 0x0, 0x0, 0x0, 0x0, 0x0, 0x0, 0x0, 0x0, 0x0, 0x0, 0x0, 0x0}, use_PC=1, use_imm=1, imm=0x8000, sop=1, eop=1 (#4294967299)
                 525: cluster0-socket0-core0-fetch rsp: wid=2, PC=0x800003d0, tmask=11111111111111111111111111111111, instr=0x8c018193 (#8589934596)
                 527: cluster0-socket0-core0-schedule: wid=2, PC=0x800003d4, tmask=11111111111111111111111111111111 (#8589934597)
                 527: cluster0-socket0-core0-commit: wid=0, sid=0, PC=0x800003e0, ex=ALU, tmask=11111111111111111111111111111111, wb=1, rd=2, sop=1, eop=1, data={0xfffb2000, 0xfffb4000, 0xfffb6000, 0xfffb8000, 0xfffba000, 0xfffbc000, 0xfffbe000, 0xfffc0000, 0xfffc2000, 0xfffc4000, 0xfffc6000, 0xfffc8000, 0xfffca000, 0xfffcc000, 0xfffce000, 0xfffd0000, 0xfffd2000, 0xfffd4000, 0xfffd6000, 0xfffd8000, 0xfffda000, 0xfffdc000, 0xfffde000, 0xfffe0000, 0xfffe2000, 0xfffe4000, 0xfffe6000, 0xfffe8000, 0xfffea000, 0xfffec000, 0xfffee000, 0xffff0000} (#12)
                 527: cluster0-socket0-core0-issue0-ibuffer: wid=2, PC=0x800003d0, ex=ALU, op=ADDI, tmask=11111111111111111111111111111111, wb=1, used_rs=001, rd=3, rs1=3, rs2=62, rs3=54, use_PC=0, use_imm=1, imm=0xfffff8c0 (#8589934596)
                 527: cluster0-socket0-core0-issue0-dispatch: wid=2, sid=0, PC=0x800003cc, ex=ALU, op=AUIPC, tmask=11111111111111111111111111111111, wb=1, rd=3, rs1_data={0x0, 0x0, 0x0, 0x0, 0x0, 0x0, 0x0, 0x0, 0x0, 0x0, 0x0, 0x0, 0x0, 0x0, 0x0, 0x0, 0x0, 0x0, 0x0, 0x0, 0x0, 0x0, 0x0, 0x0, 0x0, 0x0, 0x0, 0x0, 0x0, 0x0, 0x0, 0x0}, rs2_data={0x0, 0x0, 0x0, 0x0, 0x0, 0x0, 0x0, 0x0, 0x0, 0x0, 0x0, 0x0, 0x0, 0x0, 0x0, 0x0, 0x0, 0x0, 0x0, 0x0, 0x0, 0x0, 0x0, 0x0, 0x0, 0x0, 0x0, 0x0, 0x0, 0x0, 0x0, 0x0}, rs3_data={0x0, 0x0, 0x0, 0x0, 0x0, 0x0, 0x0, 0x0, 0x0, 0x0, 0x0, 0x0, 0x0, 0x0, 0x0, 0x0, 0x0, 0x0, 0x0, 0x0, 0x0, 0x0, 0x0, 0x0, 0x0, 0x0, 0x0, 0x0, 0x0, 0x0, 0x0, 0x0}, use_PC=1, use_imm=1, imm=0x8000, sop=1, eop=1 (#8589934595)
                 527: cluster0-socket0-core0-fetch req: wid=1, PC=0x800003d4, tmask=11111111111111111111111111111111 (#4294967301)
                 527: cluster0-socket0-core0-fetch rsp: wid=0, PC=0x800003ec, tmask=11111111111111111111111111111111, instr=0x7217 (#15)
                 529: cluster0-socket0-core0-schedule: wid=0, PC=0x800003f0, tmask=11111111111111111111111111111111 (#16)
                 529: cluster0-socket0-core0-commit: wid=0, sid=0, PC=0x800003e4, ex=ALU, tmask=11111111111111111111111111111111, wb=1, rd=6, sop=1, eop=1, data={0x1c, 0x1c, 0x1c, 0x1c, 0x1c, 0x1c, 0x1c, 0x1c, 0x1c, 0x1c, 0x1c, 0x1c, 0x1c, 0x1c, 0x1c, 0x1c, 0x1c, 0x1c, 0x1c, 0x1c, 0x1c, 0x1c, 0x1c, 0x1c, 0x1c, 0x1c, 0x1c, 0x1c, 0x1c, 0x1c, 0x1c, 0x1c} (#13)
                 529: cluster0-socket0-core0-issue0-dispatch: wid=3, sid=0, PC=0x800003cc, ex=ALU, op=AUIPC, tmask=11111111111111111111111111111111, wb=1, rd=3, rs1_data={0x0, 0x0, 0x0, 0x0, 0x0, 0x0, 0x0, 0x0, 0x0, 0x0, 0x0, 0x0, 0x0, 0x0, 0x0, 0x0, 0x0, 0x0, 0x0, 0x0, 0x0, 0x0, 0x0, 0x0, 0x0, 0x0, 0x0, 0x0, 0x0, 0x0, 0x0, 0x0}, rs2_data={0x0, 0x0, 0x0, 0x0, 0x0, 0x0, 0x0, 0x0, 0x0, 0x0, 0x0, 0x0, 0x0, 0x0, 0x0, 0x0, 0x0, 0x0, 0x0, 0x0, 0x0, 0x0, 0x0, 0x0, 0x0, 0x0, 0x0, 0x0, 0x0, 0x0, 0x0, 0x0}, rs3_data={0x0, 0x0, 0x0, 0x0, 0x0, 0x0, 0x0, 0x0, 0x0, 0x0, 0x0, 0x0, 0x0, 0x0, 0x0, 0x0, 0x0, 0x0, 0x0, 0x0, 0x0, 0x0, 0x0, 0x0, 0x0, 0x0, 0x0, 0x0, 0x0, 0x0, 0x0, 0x0}, use_PC=1, use_imm=1, imm=0x8000, sop=1, eop=1 (#12884901891)
                 529: cluster0-socket0-core0-fetch req: wid=2, PC=0x800003d4, tmask=11111111111111111111111111111111 (#8589934597)
                 529: cluster0-socket0-core0-fetch rsp: wid=3, PC=0x800003d0, tmask=11111111111111111111111111111111, instr=0x8c018193 (#12884901892)
                 531: cluster0-socket0-core0-schedule: wid=3, PC=0x800003d4, tmask=11111111111111111111111111111111 (#12884901893)
                 531: cluster0-socket0-core0-commit: wid=1, sid=0, PC=0x800003cc, ex=ALU, tmask=11111111111111111111111111111111, wb=1, rd=3, sop=1, eop=1, data={0x800083cc, 0x800083cc, 0x800083cc, 0x800083cc, 0x800083cc, 0x800083cc, 0x800083cc, 0x800083cc, 0x800083cc, 0x800083cc, 0x800083cc, 0x800083cc, 0x800083cc, 0x800083cc, 0x800083cc, 0x800083cc, 0x800083cc, 0x800083cc, 0x800083cc, 0x800083cc, 0x800083cc, 0x800083cc, 0x800083cc, 0x800083cc, 0x800083cc, 0x800083cc, 0x800083cc, 0x800083cc, 0x800083cc, 0x800083cc, 0x800083cc, 0x800083cc} (#4294967299)
                 531: cluster0-socket0-core0-issue0-ibuffer: wid=3, PC=0x800003d0, ex=ALU, op=ADDI, tmask=11111111111111111111111111111111, wb=1, used_rs=001, rd=3, rs1=3, rs2=62, rs3=54, use_PC=0, use_imm=1, imm=0xfffff8c0 (#12884901892)
                 531: cluster0-socket0-core0-fetch req: wid=0, PC=0x800003f0, tmask=11111111111111111111111111111111 (#16)
                 533: cluster0-socket0-core0-commit: wid=2, sid=0, PC=0x800003cc, ex=ALU, tmask=11111111111111111111111111111111, wb=1, rd=3, sop=1, eop=1, data={0x800083cc, 0x800083cc, 0x800083cc, 0x800083cc, 0x800083cc, 0x800083cc, 0x800083cc, 0x800083cc, 0x800083cc, 0x800083cc, 0x800083cc, 0x800083cc, 0x800083cc, 0x800083cc, 0x800083cc, 0x800083cc, 0x800083cc, 0x800083cc, 0x800083cc, 0x800083cc, 0x800083cc, 0x800083cc, 0x800083cc, 0x800083cc, 0x800083cc, 0x800083cc, 0x800083cc, 0x800083cc, 0x800083cc, 0x800083cc, 0x800083cc, 0x800083cc} (#8589934595)
                 533: cluster0-socket0-core0-issue0-ibuffer: wid=0, PC=0x800003ec, ex=ALU, op=AUIPC, tmask=11111111111111111111111111111111, wb=1, used_rs=000, rd=4, rs1=8, rs2=62, rs3=54, use_PC=1, use_imm=1, imm=0x7000 (#15)
                 533: cluster0-socket0-core0-fetch req: wid=3, PC=0x800003d4, tmask=11111111111111111111111111111111 (#12884901893)
                 535: cluster0-socket0-core0-commit: wid=3, sid=0, PC=0x800003cc, ex=ALU, tmask=11111111111111111111111111111111, wb=1, rd=3, sop=1, eop=1, data={0x800083cc, 0x800083cc, 0x800083cc, 0x800083cc, 0x800083cc, 0x800083cc, 0x800083cc, 0x800083cc, 0x800083cc, 0x800083cc, 0x800083cc, 0x800083cc, 0x800083cc, 0x800083cc, 0x800083cc, 0x800083cc, 0x800083cc, 0x800083cc, 0x800083cc, 0x800083cc, 0x800083cc, 0x800083cc, 0x800083cc, 0x800083cc, 0x800083cc, 0x800083cc, 0x800083cc, 0x800083cc, 0x800083cc, 0x800083cc, 0x800083cc, 0x800083cc} (#12884901891)
                 535: [VX_scoreboard] Issuing u-op. ISSUE_ID=0, sel_wis=0, ex_type=0, op_type=0x0, uuid=#14, PC=0x800003e8
                 535: cluster0-socket0-core0-fetch rsp: wid=1, PC=0x800003d4, tmask=11111111111111111111111111111111, instr=0xffff0137 (#4294967301)
                 537: cluster0-socket0-core0-schedule: wid=1, PC=0x800003d8, tmask=11111111111111111111111111111111 (#4294967302)
                 537: cluster0-socket0-core0-issue0-ibuffer: wid=1, PC=0x800003d4, ex=ALU, op=LUI, tmask=11111111111111111111111111111111, wb=1, used_rs=000, rd=2, rs1=8, rs2=62, rs3=54, use_PC=0, use_imm=1, imm=0xffff0000 (#4294967301)
                 537: [VX_scoreboard] Issuing u-op. ISSUE_ID=0, sel_wis=1, ex_type=0, op_type=0x0, uuid=#4294967300, PC=0x800003d0
                 537: cluster0-socket0-core0-fetch rsp: wid=2, PC=0x800003d4, tmask=11111111111111111111111111111111, instr=0xffff0137 (#8589934597)
                 539: cluster0-socket0-core0-schedule: wid=2, PC=0x800003d8, tmask=11111111111111111111111111111111 (#8589934598)
                 539: cluster0-socket0-core0-issue0-ibuffer: wid=2, PC=0x800003d4, ex=ALU, op=LUI, tmask=11111111111111111111111111111111, wb=1, used_rs=000, rd=2, rs1=8, rs2=62, rs3=54, use_PC=0, use_imm=1, imm=0xffff0000 (#8589934597)
                 539: [VX_scoreboard] Issuing u-op. ISSUE_ID=0, sel_wis=2, ex_type=0, op_type=0x0, uuid=#8589934596, PC=0x800003d0
                 539: cluster0-socket0-core0-fetch req: wid=1, PC=0x800003d8, tmask=11111111111111111111111111111111 (#4294967302)
                 539: cluster0-socket0-core0-fetch rsp: wid=0, PC=0x800003f0, tmask=11111111111111111111111111111111, instr=0x17020213 (#16)
                 541: cluster0-socket0-core0-schedule: wid=0, PC=0x800003f4, tmask=11111111111111111111111111111111 (#17)
                 541: cluster0-socket0-core0-issue0-ibuffer: wid=0, PC=0x800003f0, ex=ALU, op=ADDI, tmask=11111111111111111111111111111111, wb=1, used_rs=001, rd=4, rs1=4, rs2=62, rs3=54, use_PC=0, use_imm=1, imm=0x170 (#16)
                 541: cluster0-socket0-core0-issue0-dispatch: wid=0, sid=0, PC=0x800003e8, ex=ALU, op=MUL, tmask=11111111111111111111111111111111, wb=1, rd=5, rs1_data={0x1f, 0x1e, 0x1d, 0x1c, 0x1b, 0x1a, 0x19, 0x18, 0x17, 0x16, 0x15, 0x14, 0x13, 0x12, 0x11, 0x10, 0xf, 0xe, 0xd, 0xc, 0xb, 0xa, 0x9, 0x8, 0x7, 0x6, 0x5, 0x4, 0x3, 0x2, 0x1, 0x0}, rs2_data={0x1c, 0x1c, 0x1c, 0x1c, 0x1c, 0x1c, 0x1c, 0x1c, 0x1c, 0x1c, 0x1c, 0x1c, 0x1c, 0x1c, 0x1c, 0x1c, 0x1c, 0x1c, 0x1c, 0x1c, 0x1c, 0x1c, 0x1c, 0x1c, 0x1c, 0x1c, 0x1c, 0x1c, 0x1c, 0x1c, 0x1c, 0x1c}, rs3_data={0x0, 0x0, 0x0, 0x0, 0x0, 0x0, 0x0, 0x0, 0x0, 0x0, 0x0, 0x0, 0x0, 0x0, 0x0, 0x0, 0x0, 0x0, 0x0, 0x0, 0x0, 0x0, 0x0, 0x0, 0x0, 0x0, 0x0, 0x0, 0x0, 0x0, 0x0, 0x0}, use_PC=0, use_imm=0, imm=0x68bf2327, sop=1, eop=1 (#14)
                 541: [VX_scoreboard] Issuing u-op. ISSUE_ID=0, sel_wis=3, ex_type=0, op_type=0x0, uuid=#12884901892, PC=0x800003d0
                 541: cluster0-socket0-core0-fetch req: wid=2, PC=0x800003d8, tmask=11111111111111111111111111111111 (#8589934598)
                 541: cluster0-socket0-core0-fetch rsp: wid=3, PC=0x800003d4, tmask=11111111111111111111111111111111, instr=0xffff0137 (#12884901893)
                 543: cluster0-socket0-core0-schedule: wid=3, PC=0x800003d8, tmask=11111111111111111111111111111111 (#12884901894)
                 543: cluster0-socket0-core0-issue0-ibuffer: wid=3, PC=0x800003d4, ex=ALU, op=LUI, tmask=11111111111111111111111111111111, wb=1, used_rs=000, rd=2, rs1=8, rs2=62, rs3=54, use_PC=0, use_imm=1, imm=0xffff0000 (#12884901893)
                 543: cluster0-socket0-core0-issue0-dispatch: wid=1, sid=0, PC=0x800003d0, ex=ALU, op=ADDI, tmask=11111111111111111111111111111111, wb=1, rd=3, rs1_data={0x800083cc, 0x800083cc, 0x800083cc, 0x800083cc, 0x800083cc, 0x800083cc, 0x800083cc, 0x800083cc, 0x800083cc, 0x800083cc, 0x800083cc, 0x800083cc, 0x800083cc, 0x800083cc, 0x800083cc, 0x800083cc, 0x800083cc, 0x800083cc, 0x800083cc, 0x800083cc, 0x800083cc, 0x800083cc, 0x800083cc, 0x800083cc, 0x800083cc, 0x800083cc, 0x800083cc, 0x800083cc, 0x800083cc, 0x800083cc, 0x800083cc, 0x800083cc}, rs2_data={0x0, 0x0, 0x0, 0x0, 0x0, 0x0, 0x0, 0x0, 0x0, 0x0, 0x0, 0x0, 0x0, 0x0, 0x0, 0x0, 0x0, 0x0, 0x0, 0x0, 0x0, 0x0, 0x0, 0x0, 0x0, 0x0, 0x0, 0x0, 0x0, 0x0, 0x0, 0x0}, rs3_data={0x0, 0x0, 0x0, 0x0, 0x0, 0x0, 0x0, 0x0, 0x0, 0x0, 0x0, 0x0, 0x0, 0x0, 0x0, 0x0, 0x0, 0x0, 0x0, 0x0, 0x0, 0x0, 0x0, 0x0, 0x0, 0x0, 0x0, 0x0, 0x0, 0x0, 0x0, 0x0}, use_PC=0, use_imm=1, imm=0xfffff8c0, sop=1, eop=1 (#4294967300)
                 543: [VX_scoreboard] Issuing u-op. ISSUE_ID=0, sel_wis=0, ex_type=0, op_type=0x3, uuid=#15, PC=0x800003ec
                 543: cluster0-socket0-core0-fetch req: wid=0, PC=0x800003f4, tmask=11111111111111111111111111111111 (#17)
                 545: cluster0-socket0-core0-issue0-dispatch: wid=2, sid=0, PC=0x800003d0, ex=ALU, op=ADDI, tmask=11111111111111111111111111111111, wb=1, rd=3, rs1_data={0x800083cc, 0x800083cc, 0x800083cc, 0x800083cc, 0x800083cc, 0x800083cc, 0x800083cc, 0x800083cc, 0x800083cc, 0x800083cc, 0x800083cc, 0x800083cc, 0x800083cc, 0x800083cc, 0x800083cc, 0x800083cc, 0x800083cc, 0x800083cc, 0x800083cc, 0x800083cc, 0x800083cc, 0x800083cc, 0x800083cc, 0x800083cc, 0x800083cc, 0x800083cc, 0x800083cc, 0x800083cc, 0x800083cc, 0x800083cc, 0x800083cc, 0x800083cc}, rs2_data={0x0, 0x0, 0x0, 0x0, 0x0, 0x0, 0x0, 0x0, 0x0, 0x0, 0x0, 0x0, 0x0, 0x0, 0x0, 0x0, 0x0, 0x0, 0x0, 0x0, 0x0, 0x0, 0x0, 0x0, 0x0, 0x0, 0x0, 0x0, 0x0, 0x0, 0x0, 0x0}, rs3_data={0x0, 0x0, 0x0, 0x0, 0x0, 0x0, 0x0, 0x0, 0x0, 0x0, 0x0, 0x0, 0x0, 0x0, 0x0, 0x0, 0x0, 0x0, 0x0, 0x0, 0x0, 0x0, 0x0, 0x0, 0x0, 0x0, 0x0, 0x0, 0x0, 0x0, 0x0, 0x0}, use_PC=0, use_imm=1, imm=0xfffff8c0, sop=1, eop=1 (#8589934596)
                 545: [VX_scoreboard] Issuing u-op. ISSUE_ID=0, sel_wis=1, ex_type=0, op_type=0x2, uuid=#4294967301, PC=0x800003d4
                 545: cluster0-socket0-core0-fetch req: wid=3, PC=0x800003d8, tmask=11111111111111111111111111111111 (#12884901894)
                 547: cluster0-socket0-core0-issue0-dispatch: wid=3, sid=0, PC=0x800003d0, ex=ALU, op=ADDI, tmask=11111111111111111111111111111111, wb=1, rd=3, rs1_data={0x800083cc, 0x800083cc, 0x800083cc, 0x800083cc, 0x800083cc, 0x800083cc, 0x800083cc, 0x800083cc, 0x800083cc, 0x800083cc, 0x800083cc, 0x800083cc, 0x800083cc, 0x800083cc, 0x800083cc, 0x800083cc, 0x800083cc, 0x800083cc, 0x800083cc, 0x800083cc, 0x800083cc, 0x800083cc, 0x800083cc, 0x800083cc, 0x800083cc, 0x800083cc, 0x800083cc, 0x800083cc, 0x800083cc, 0x800083cc, 0x800083cc, 0x800083cc}, rs2_data={0x0, 0x0, 0x0, 0x0, 0x0, 0x0, 0x0, 0x0, 0x0, 0x0, 0x0, 0x0, 0x0, 0x0, 0x0, 0x0, 0x0, 0x0, 0x0, 0x0, 0x0, 0x0, 0x0, 0x0, 0x0, 0x0, 0x0, 0x0, 0x0, 0x0, 0x0, 0x0}, rs3_data={0x0, 0x0, 0x0, 0x0, 0x0, 0x0, 0x0, 0x0, 0x0, 0x0, 0x0, 0x0, 0x0, 0x0, 0x0, 0x0, 0x0, 0x0, 0x0, 0x0, 0x0, 0x0, 0x0, 0x0, 0x0, 0x0, 0x0, 0x0, 0x0, 0x0, 0x0, 0x0}, use_PC=0, use_imm=1, imm=0xfffff8c0, sop=1, eop=1 (#12884901892)
                 547: [VX_scoreboard] Issuing u-op. ISSUE_ID=0, sel_wis=2, ex_type=0, op_type=0x2, uuid=#8589934597, PC=0x800003d4
                 547: cluster0-socket0-core0-fetch rsp: wid=1, PC=0x800003d8, tmask=11111111111111111111111111111111, instr=0xf14022f3 (#4294967302)
                 549: cluster0-socket0-core0-schedule: wid=1, PC=0x800003dc, tmask=11111111111111111111111111111111 (#4294967303)
                 549: cluster0-socket0-core0-commit: wid=1, sid=0, PC=0x800003d0, ex=ALU, tmask=11111111111111111111111111111111, wb=1, rd=3, sop=1, eop=1, data={0x80007c8c, 0x80007c8c, 0x80007c8c, 0x80007c8c, 0x80007c8c, 0x80007c8c, 0x80007c8c, 0x80007c8c, 0x80007c8c, 0x80007c8c, 0x80007c8c, 0x80007c8c, 0x80007c8c, 0x80007c8c, 0x80007c8c, 0x80007c8c, 0x80007c8c, 0x80007c8c, 0x80007c8c, 0x80007c8c, 0x80007c8c, 0x80007c8c, 0x80007c8c, 0x80007c8c, 0x80007c8c, 0x80007c8c, 0x80007c8c, 0x80007c8c, 0x80007c8c, 0x80007c8c, 0x80007c8c, 0x80007c8c} (#4294967300)
                 549: cluster0-socket0-core0-issue0-ibuffer: wid=1, PC=0x800003d8, ex=SFU, op=CSRRS, tmask=11111111111111111111111111111111, wb=1, used_rs=001, rd=5, rs1=0, rs2=62, rs3=54, addr=0xf14, use_imm=0, imm=0x7 (#4294967302)
                 549: cluster0-socket0-core0-issue0-dispatch: wid=0, sid=0, PC=0x800003ec, ex=ALU, op=AUIPC, tmask=11111111111111111111111111111111, wb=1, rd=4, rs1_data={0x0, 0x0, 0x0, 0x0, 0x0, 0x0, 0x0, 0x0, 0x0, 0x0, 0x0, 0x0, 0x0, 0x0, 0x0, 0x0, 0x0, 0x0, 0x0, 0x0, 0x0, 0x0, 0x0, 0x0, 0x0, 0x0, 0x0, 0x0, 0x0, 0x0, 0x0, 0x0}, rs2_data={0x0, 0x0, 0x0, 0x0, 0x0, 0x0, 0x0, 0x0, 0x0, 0x0, 0x0, 0x0, 0x0, 0x0, 0x0, 0x0, 0x0, 0x0, 0x0, 0x0, 0x0, 0x0, 0x0, 0x0, 0x0, 0x0, 0x0, 0x0, 0x0, 0x0, 0x0, 0x0}, rs3_data={0x0, 0x0, 0x0, 0x0, 0x0, 0x0, 0x0, 0x0, 0x0, 0x0, 0x0, 0x0, 0x0, 0x0, 0x0, 0x0, 0x0, 0x0, 0x0, 0x0, 0x0, 0x0, 0x0, 0x0, 0x0, 0x0, 0x0, 0x0, 0x0, 0x0, 0x0, 0x0}, use_PC=1, use_imm=1, imm=0x7000, sop=1, eop=1 (#15)
                 549: [VX_scoreboard] Issuing u-op. ISSUE_ID=0, sel_wis=3, ex_type=0, op_type=0x2, uuid=#12884901893, PC=0x800003d4
                 549: cluster0-socket0-core0-fetch rsp: wid=2, PC=0x800003d8, tmask=11111111111111111111111111111111, instr=0xf14022f3 (#8589934598)
                 551: cluster0-socket0-core0-schedule: wid=2, PC=0x800003dc, tmask=11111111111111111111111111111111 (#8589934599)
                 551: cluster0-socket0-core0-commit: wid=2, sid=0, PC=0x800003d0, ex=ALU, tmask=11111111111111111111111111111111, wb=1, rd=3, sop=1, eop=1, data={0x80007c8c, 0x80007c8c, 0x80007c8c, 0x80007c8c, 0x80007c8c, 0x80007c8c, 0x80007c8c, 0x80007c8c, 0x80007c8c, 0x80007c8c, 0x80007c8c, 0x80007c8c, 0x80007c8c, 0x80007c8c, 0x80007c8c, 0x80007c8c, 0x80007c8c, 0x80007c8c, 0x80007c8c, 0x80007c8c, 0x80007c8c, 0x80007c8c, 0x80007c8c, 0x80007c8c, 0x80007c8c, 0x80007c8c, 0x80007c8c, 0x80007c8c, 0x80007c8c, 0x80007c8c, 0x80007c8c, 0x80007c8c} (#8589934596)
                 551: cluster0-socket0-core0-issue0-ibuffer: wid=2, PC=0x800003d8, ex=SFU, op=CSRRS, tmask=11111111111111111111111111111111, wb=1, used_rs=001, rd=5, rs1=0, rs2=62, rs3=54, addr=0xf14, use_imm=0, imm=0x7 (#8589934598)
                 551: cluster0-socket0-core0-issue0-dispatch: wid=1, sid=0, PC=0x800003d4, ex=ALU, op=LUI, tmask=11111111111111111111111111111111, wb=1, rd=2, rs1_data={0x0, 0x0, 0x0, 0x0, 0x0, 0x0, 0x0, 0x0, 0x0, 0x0, 0x0, 0x0, 0x0, 0x0, 0x0, 0x0, 0x0, 0x0, 0x0, 0x0, 0x0, 0x0, 0x0, 0x0, 0x0, 0x0, 0x0, 0x0, 0x0, 0x0, 0x0, 0x0}, rs2_data={0x0, 0x0, 0x0, 0x0, 0x0, 0x0, 0x0, 0x0, 0x0, 0x0, 0x0, 0x0, 0x0, 0x0, 0x0, 0x0, 0x0, 0x0, 0x0, 0x0, 0x0, 0x0, 0x0, 0x0, 0x0, 0x0, 0x0, 0x0, 0x0, 0x0, 0x0, 0x0}, rs3_data={0x0, 0x0, 0x0, 0x0, 0x0, 0x0, 0x0, 0x0, 0x0, 0x0, 0x0, 0x0, 0x0, 0x0, 0x0, 0x0, 0x0, 0x0, 0x0, 0x0, 0x0, 0x0, 0x0, 0x0, 0x0, 0x0, 0x0, 0x0, 0x0, 0x0, 0x0, 0x0}, use_PC=0, use_imm=1, imm=0xffff0000, sop=1, eop=1 (#4294967301)
                 551: cluster0-socket0-core0-fetch req: wid=1, PC=0x800003dc, tmask=11111111111111111111111111111111 (#4294967303)
                 551: cluster0-socket0-core0-fetch rsp: wid=0, PC=0x800003f4, tmask=11111111111111111111111111111111, instr=0x520233 (#17)
                 553: cluster0-socket0-core0-schedule: wid=0, PC=0x800003f8, tmask=11111111111111111111111111111111 (#18)
                 553: cluster0-socket0-core0-commit: wid=0, sid=0, PC=0x800003e8, ex=ALU, tmask=11111111111111111111111111111111, wb=1, rd=5, sop=1, eop=1, data={0x364, 0x348, 0x32c, 0x310, 0x2f4, 0x2d8, 0x2bc, 0x2a0, 0x284, 0x268, 0x24c, 0x230, 0x214, 0x1f8, 0x1dc, 0x1c0, 0x1a4, 0x188, 0x16c, 0x150, 0x134, 0x118, 0xfc, 0xe0, 0xc4, 0xa8, 0x8c, 0x70, 0x54, 0x38, 0x1c, 0x0} (#14)
                 553: [VX_scoreboard] Issuing u-op. ISSUE_ID=0, sel_wis=1, ex_type=2, op_type=0x7, uuid=#4294967302, PC=0x800003d8
                 553: cluster0-socket0-core0-fetch req: wid=2, PC=0x800003dc, tmask=11111111111111111111111111111111 (#8589934599)
                 553: cluster0-socket0-core0-fetch rsp: wid=3, PC=0x800003d8, tmask=11111111111111111111111111111111, instr=0xf14022f3 (#12884901894)
                 555: cluster0-socket0-core0-schedule: wid=3, PC=0x800003dc, tmask=11111111111111111111111111111111 (#12884901895)
                 555: cluster0-socket0-core0-commit: wid=3, sid=0, PC=0x800003d0, ex=ALU, tmask=11111111111111111111111111111111, wb=1, rd=3, sop=1, eop=1, data={0x80007c8c, 0x80007c8c, 0x80007c8c, 0x80007c8c, 0x80007c8c, 0x80007c8c, 0x80007c8c, 0x80007c8c, 0x80007c8c, 0x80007c8c, 0x80007c8c, 0x80007c8c, 0x80007c8c, 0x80007c8c, 0x80007c8c, 0x80007c8c, 0x80007c8c, 0x80007c8c, 0x80007c8c, 0x80007c8c, 0x80007c8c, 0x80007c8c, 0x80007c8c, 0x80007c8c, 0x80007c8c, 0x80007c8c, 0x80007c8c, 0x80007c8c, 0x80007c8c, 0x80007c8c, 0x80007c8c, 0x80007c8c} (#12884901892)
                 555: cluster0-socket0-core0-issue0-ibuffer: wid=3, PC=0x800003d8, ex=SFU, op=CSRRS, tmask=11111111111111111111111111111111, wb=1, used_rs=001, rd=5, rs1=0, rs2=62, rs3=54, addr=0xf14, use_imm=0, imm=0x7 (#12884901894)
                 555: cluster0-socket0-core0-issue0-dispatch: wid=2, sid=0, PC=0x800003d4, ex=ALU, op=LUI, tmask=11111111111111111111111111111111, wb=1, rd=2, rs1_data={0x0, 0x0, 0x0, 0x0, 0x0, 0x0, 0x0, 0x0, 0x0, 0x0, 0x0, 0x0, 0x0, 0x0, 0x0, 0x0, 0x0, 0x0, 0x0, 0x0, 0x0, 0x0, 0x0, 0x0, 0x0, 0x0, 0x0, 0x0, 0x0, 0x0, 0x0, 0x0}, rs2_data={0x0, 0x0, 0x0, 0x0, 0x0, 0x0, 0x0, 0x0, 0x0, 0x0, 0x0, 0x0, 0x0, 0x0, 0x0, 0x0, 0x0, 0x0, 0x0, 0x0, 0x0, 0x0, 0x0, 0x0, 0x0, 0x0, 0x0, 0x0, 0x0, 0x0, 0x0, 0x0}, rs3_data={0x0, 0x0, 0x0, 0x0, 0x0, 0x0, 0x0, 0x0, 0x0, 0x0, 0x0, 0x0, 0x0, 0x0, 0x0, 0x0, 0x0, 0x0, 0x0, 0x0, 0x0, 0x0, 0x0, 0x0, 0x0, 0x0, 0x0, 0x0, 0x0, 0x0, 0x0, 0x0}, use_PC=0, use_imm=1, imm=0xffff0000, sop=1, eop=1 (#8589934597)
                 555: [VX_scoreboard] Issuing u-op. ISSUE_ID=0, sel_wis=2, ex_type=2, op_type=0x7, uuid=#8589934598, PC=0x800003d8
                 555: cluster0-socket0-core0-fetch req: wid=0, PC=0x800003f8, tmask=11111111111111111111111111111111 (#18)
                 557: cluster0-socket0-core0-commit: wid=0, sid=0, PC=0x800003ec, ex=ALU, tmask=11111111111111111111111111111111, wb=1, rd=4, sop=1, eop=1, data={0x800073ec, 0x800073ec, 0x800073ec, 0x800073ec, 0x800073ec, 0x800073ec, 0x800073ec, 0x800073ec, 0x800073ec, 0x800073ec, 0x800073ec, 0x800073ec, 0x800073ec, 0x800073ec, 0x800073ec, 0x800073ec, 0x800073ec, 0x800073ec, 0x800073ec, 0x800073ec, 0x800073ec, 0x800073ec, 0x800073ec, 0x800073ec, 0x800073ec, 0x800073ec, 0x800073ec, 0x800073ec, 0x800073ec, 0x800073ec, 0x800073ec, 0x800073ec} (#15)
                 557: cluster0-socket0-core0-issue0-dispatch: wid=3, sid=0, PC=0x800003d4, ex=ALU, op=LUI, tmask=11111111111111111111111111111111, wb=1, rd=2, rs1_data={0x0, 0x0, 0x0, 0x0, 0x0, 0x0, 0x0, 0x0, 0x0, 0x0, 0x0, 0x0, 0x0, 0x0, 0x0, 0x0, 0x0, 0x0, 0x0, 0x0, 0x0, 0x0, 0x0, 0x0, 0x0, 0x0, 0x0, 0x0, 0x0, 0x0, 0x0, 0x0}, rs2_data={0x0, 0x0, 0x0, 0x0, 0x0, 0x0, 0x0, 0x0, 0x0, 0x0, 0x0, 0x0, 0x0, 0x0, 0x0, 0x0, 0x0, 0x0, 0x0, 0x0, 0x0, 0x0, 0x0, 0x0, 0x0, 0x0, 0x0, 0x0, 0x0, 0x0, 0x0, 0x0}, rs3_data={0x0, 0x0, 0x0, 0x0, 0x0, 0x0, 0x0, 0x0, 0x0, 0x0, 0x0, 0x0, 0x0, 0x0, 0x0, 0x0, 0x0, 0x0, 0x0, 0x0, 0x0, 0x0, 0x0, 0x0, 0x0, 0x0, 0x0, 0x0, 0x0, 0x0, 0x0, 0x0}, use_PC=0, use_imm=1, imm=0xffff0000, sop=1, eop=1 (#12884901893)
                 557: cluster0-socket0-core0-fetch req: wid=3, PC=0x800003dc, tmask=11111111111111111111111111111111 (#12884901895)
                 559: cluster0-socket0-core0-commit: wid=1, sid=0, PC=0x800003d4, ex=ALU, tmask=11111111111111111111111111111111, wb=1, rd=2, sop=1, eop=1, data={0xffff0000, 0xffff0000, 0xffff0000, 0xffff0000, 0xffff0000, 0xffff0000, 0xffff0000, 0xffff0000, 0xffff0000, 0xffff0000, 0xffff0000, 0xffff0000, 0xffff0000, 0xffff0000, 0xffff0000, 0xffff0000, 0xffff0000, 0xffff0000, 0xffff0000, 0xffff0000, 0xffff0000, 0xffff0000, 0xffff0000, 0xffff0000, 0xffff0000, 0xffff0000, 0xffff0000, 0xffff0000, 0xffff0000, 0xffff0000, 0xffff0000, 0xffff0000} (#4294967301)
                 559: cluster0-socket0-core0-issue0-dispatch: wid=1, sid=0, PC=0x800003d8, ex=SFU, op=CSRRS, tmask=11111111111111111111111111111111, wb=1, rd=5, rs1_data={0x0, 0x0, 0x0, 0x0, 0x0, 0x0, 0x0, 0x0, 0x0, 0x0, 0x0, 0x0, 0x0, 0x0, 0x0, 0x0, 0x0, 0x0, 0x0, 0x0, 0x0, 0x0, 0x0, 0x0, 0x0, 0x0, 0x0, 0x0, 0x0, 0x0, 0x0, 0x0}, rs2_data={0x0, 0x0, 0x0, 0x0, 0x0, 0x0, 0x0, 0x0, 0x0, 0x0, 0x0, 0x0, 0x0, 0x0, 0x0, 0x0, 0x0, 0x0, 0x0, 0x0, 0x0, 0x0, 0x0, 0x0, 0x0, 0x0, 0x0, 0x0, 0x0, 0x0, 0x0, 0x0}, rs3_data={0x0, 0x0, 0x0, 0x0, 0x0, 0x0, 0x0, 0x0, 0x0, 0x0, 0x0, 0x0, 0x0, 0x0, 0x0, 0x0, 0x0, 0x0, 0x0, 0x0, 0x0, 0x0, 0x0, 0x0, 0x0, 0x0, 0x0, 0x0, 0x0, 0x0, 0x0, 0x0}, addr=0xf14, use_imm=0, imm=0x7, sop=1, eop=1 (#4294967302)
                 559: [VX_scoreboard] Issuing u-op. ISSUE_ID=0, sel_wis=3, ex_type=2, op_type=0x7, uuid=#12884901894, PC=0x800003d8
                 559: cluster0-socket0-core0-fetch rsp: wid=1, PC=0x800003dc, tmask=11111111111111111111111111111111, instr=0xd29313 (#4294967303)
                 561: cluster0-socket0-core0-schedule: wid=1, PC=0x800003e0, tmask=11111111111111111111111111111111 (#4294967304)
                 561: cluster0-socket0-core0-commit: wid=2, sid=0, PC=0x800003d4, ex=ALU, tmask=11111111111111111111111111111111, wb=1, rd=2, sop=1, eop=1, data={0xffff0000, 0xffff0000, 0xffff0000, 0xffff0000, 0xffff0000, 0xffff0000, 0xffff0000, 0xffff0000, 0xffff0000, 0xffff0000, 0xffff0000, 0xffff0000, 0xffff0000, 0xffff0000, 0xffff0000, 0xffff0000, 0xffff0000, 0xffff0000, 0xffff0000, 0xffff0000, 0xffff0000, 0xffff0000, 0xffff0000, 0xffff0000, 0xffff0000, 0xffff0000, 0xffff0000, 0xffff0000, 0xffff0000, 0xffff0000, 0xffff0000, 0xffff0000} (#8589934597)
                 561: cluster0-socket0-core0-issue0-ibuffer: wid=0, PC=0x800003f4, ex=ALU, op=ADD, tmask=11111111111111111111111111111111, wb=1, used_rs=011, rd=4, rs1=4, rs2=5, rs3=54, use_PC=0, use_imm=0, imm=0x68bf2327 (#17)
                 561: cluster0-socket0-core0-issue0-ibuffer: wid=1, PC=0x800003dc, ex=ALU, op=SLLI, tmask=11111111111111111111111111111111, wb=1, used_rs=001, rd=6, rs1=5, rs2=62, rs3=54, use_PC=0, use_imm=1, imm=0xd (#4294967303)
                 561: cluster0-socket0-core0-issue0-dispatch: wid=2, sid=0, PC=0x800003d8, ex=SFU, op=CSRRS, tmask=11111111111111111111111111111111, wb=1, rd=5, rs1_data={0x0, 0x0, 0x0, 0x0, 0x0, 0x0, 0x0, 0x0, 0x0, 0x0, 0x0, 0x0, 0x0, 0x0, 0x0, 0x0, 0x0, 0x0, 0x0, 0x0, 0x0, 0x0, 0x0, 0x0, 0x0, 0x0, 0x0, 0x0, 0x0, 0x0, 0x0, 0x0}, rs2_data={0x0, 0x0, 0x0, 0x0, 0x0, 0x0, 0x0, 0x0, 0x0, 0x0, 0x0, 0x0, 0x0, 0x0, 0x0, 0x0, 0x0, 0x0, 0x0, 0x0, 0x0, 0x0, 0x0, 0x0, 0x0, 0x0, 0x0, 0x0, 0x0, 0x0, 0x0, 0x0}, rs3_data={0x0, 0x0, 0x0, 0x0, 0x0, 0x0, 0x0, 0x0, 0x0, 0x0, 0x0, 0x0, 0x0, 0x0, 0x0, 0x0, 0x0, 0x0, 0x0, 0x0, 0x0, 0x0, 0x0, 0x0, 0x0, 0x0, 0x0, 0x0, 0x0, 0x0, 0x0, 0x0}, addr=0xf14, use_imm=0, imm=0x7, sop=1, eop=1 (#8589934598)
                 561: cluster0-socket0-core0-fetch rsp: wid=2, PC=0x800003dc, tmask=11111111111111111111111111111111, instr=0xd29313 (#8589934599)
                 563: cluster0-socket0-core0-schedule: wid=2, PC=0x800003e0, tmask=11111111111111111111111111111111 (#8589934600)
                 563: cluster0-socket0-core0-commit: wid=3, sid=0, PC=0x800003d4, ex=ALU, tmask=11111111111111111111111111111111, wb=1, rd=2, sop=1, eop=1, data={0xffff0000, 0xffff0000, 0xffff0000, 0xffff0000, 0xffff0000, 0xffff0000, 0xffff0000, 0xffff0000, 0xffff0000, 0xffff0000, 0xffff0000, 0xffff0000, 0xffff0000, 0xffff0000, 0xffff0000, 0xffff0000, 0xffff0000, 0xffff0000, 0xffff0000, 0xffff0000, 0xffff0000, 0xffff0000, 0xffff0000, 0xffff0000, 0xffff0000, 0xffff0000, 0xffff0000, 0xffff0000, 0xffff0000, 0xffff0000, 0xffff0000, 0xffff0000} (#12884901893)
                 563: cluster0-socket0-core0-issue0-ibuffer: wid=2, PC=0x800003dc, ex=ALU, op=SLLI, tmask=11111111111111111111111111111111, wb=1, used_rs=001, rd=6, rs1=5, rs2=62, rs3=54, use_PC=0, use_imm=1, imm=0xd (#8589934599)
                 563: [VX_scoreboard] Issuing u-op. ISSUE_ID=0, sel_wis=0, ex_type=0, op_type=0x0, uuid=#16, PC=0x800003f0
                 563: cluster0-socket0-core0-fetch req: wid=1, PC=0x800003e0, tmask=11111111111111111111111111111111 (#4294967304)
                 563: cluster0-socket0-core0-fetch rsp: wid=0, PC=0x800003f8, tmask=11111111111111111111111111111111, instr=0x8067 (#18)
                 565: cluster0-socket0-core0-issue0-dispatch: wid=3, sid=0, PC=0x800003d8, ex=SFU, op=CSRRS, tmask=11111111111111111111111111111111, wb=1, rd=5, rs1_data={0x0, 0x0, 0x0, 0x0, 0x0, 0x0, 0x0, 0x0, 0x0, 0x0, 0x0, 0x0, 0x0, 0x0, 0x0, 0x0, 0x0, 0x0, 0x0, 0x0, 0x0, 0x0, 0x0, 0x0, 0x0, 0x0, 0x0, 0x0, 0x0, 0x0, 0x0, 0x0}, rs2_data={0x0, 0x0, 0x0, 0x0, 0x0, 0x0, 0x0, 0x0, 0x0, 0x0, 0x0, 0x0, 0x0, 0x0, 0x0, 0x0, 0x0, 0x0, 0x0, 0x0, 0x0, 0x0, 0x0, 0x0, 0x0, 0x0, 0x0, 0x0, 0x0, 0x0, 0x0, 0x0}, rs3_data={0x0, 0x0, 0x0, 0x0, 0x0, 0x0, 0x0, 0x0, 0x0, 0x0, 0x0, 0x0, 0x0, 0x0, 0x0, 0x0, 0x0, 0x0, 0x0, 0x0, 0x0, 0x0, 0x0, 0x0, 0x0, 0x0, 0x0, 0x0, 0x0, 0x0, 0x0, 0x0}, addr=0xf14, use_imm=0, imm=0x7, sop=1, eop=1 (#12884901894)
                 565: cluster0-socket0-core0-fetch req: wid=2, PC=0x800003e0, tmask=11111111111111111111111111111111 (#8589934600)
                 565: cluster0-socket0-core0-fetch rsp: wid=3, PC=0x800003dc, tmask=11111111111111111111111111111111, instr=0xd29313 (#12884901895)
                 567: cluster0-socket0-core0-schedule: wid=3, PC=0x800003e0, tmask=11111111111111111111111111111111 (#12884901896)
                 567: cluster0-socket0-core0-issue0-ibuffer: wid=3, PC=0x800003dc, ex=ALU, op=SLLI, tmask=11111111111111111111111111111111, wb=1, used_rs=001, rd=6, rs1=5, rs2=62, rs3=54, use_PC=0, use_imm=1, imm=0xd (#12884901895)
                 569: cluster0-socket0-core0-commit: wid=1, sid=0, PC=0x800003d8, ex=SFU, tmask=11111111111111111111111111111111, wb=1, rd=5, sop=1, eop=1, data={0x3f, 0x3e, 0x3d, 0x3c, 0x3b, 0x3a, 0x39, 0x38, 0x37, 0x36, 0x35, 0x34, 0x33, 0x32, 0x31, 0x30, 0x2f, 0x2e, 0x2d, 0x2c, 0x2b, 0x2a, 0x29, 0x28, 0x27, 0x26, 0x25, 0x24, 0x23, 0x22, 0x21, 0x20} (#4294967302)
                 569: cluster0-socket0-core0-issue0-dispatch: wid=0, sid=0, PC=0x800003f0, ex=ALU, op=ADDI, tmask=11111111111111111111111111111111, wb=1, rd=4, rs1_data={0x800073ec, 0x800073ec, 0x800073ec, 0x800073ec, 0x800073ec, 0x800073ec, 0x800073ec, 0x800073ec, 0x800073ec, 0x800073ec, 0x800073ec, 0x800073ec, 0x800073ec, 0x800073ec, 0x800073ec, 0x800073ec, 0x800073ec, 0x800073ec, 0x800073ec, 0x800073ec, 0x800073ec, 0x800073ec, 0x800073ec, 0x800073ec, 0x800073ec, 0x800073ec, 0x800073ec, 0x800073ec, 0x800073ec, 0x800073ec, 0x800073ec, 0x800073ec}, rs2_data={0x0, 0x0, 0x0, 0x0, 0x0, 0x0, 0x0, 0x0, 0x0, 0x0, 0x0, 0x0, 0x0, 0x0, 0x0, 0x0, 0x0, 0x0, 0x0, 0x0, 0x0, 0x0, 0x0, 0x0, 0x0, 0x0, 0x0, 0x0, 0x0, 0x0, 0x0, 0x0}, rs3_data={0x0, 0x0, 0x0, 0x0, 0x0, 0x0, 0x0, 0x0, 0x0, 0x0, 0x0, 0x0, 0x0, 0x0, 0x0, 0x0, 0x0, 0x0, 0x0, 0x0, 0x0, 0x0, 0x0, 0x0, 0x0, 0x0, 0x0, 0x0, 0x0, 0x0, 0x0, 0x0}, use_PC=0, use_imm=1, imm=0x170, sop=1, eop=1 (#16)
                 569: cluster0-socket0-core0-fetch req: wid=3, PC=0x800003e0, tmask=11111111111111111111111111111111 (#12884901896)
                 571: cluster0-socket0-core0-commit: wid=2, sid=0, PC=0x800003d8, ex=SFU, tmask=11111111111111111111111111111111, wb=1, rd=5, sop=1, eop=1, data={0x5f, 0x5e, 0x5d, 0x5c, 0x5b, 0x5a, 0x59, 0x58, 0x57, 0x56, 0x55, 0x54, 0x53, 0x52, 0x51, 0x50, 0x4f, 0x4e, 0x4d, 0x4c, 0x4b, 0x4a, 0x49, 0x48, 0x47, 0x46, 0x45, 0x44, 0x43, 0x42, 0x41, 0x40} (#8589934598)
                 571: cluster0-socket0-core0-fetch rsp: wid=1, PC=0x800003e0, tmask=11111111111111111111111111111111, instr=0x40610133 (#4294967304)
                 573: cluster0-socket0-core0-schedule: wid=1, PC=0x800003e4, tmask=11111111111111111111111111111111 (#4294967305)
                 573: cluster0-socket0-core0-issue0-ibuffer: wid=1, PC=0x800003e0, ex=ALU, op=SUB, tmask=11111111111111111111111111111111, wb=1, used_rs=011, rd=2, rs1=2, rs2=6, rs3=54, use_PC=0, use_imm=0, imm=0x68bf2327 (#4294967304)
                 573: cluster0-socket0-core0-fetch rsp: wid=2, PC=0x800003e0, tmask=11111111111111111111111111111111, instr=0x40610133 (#8589934600)
                 575: cluster0-socket0-core0-schedule: wid=2, PC=0x800003e4, tmask=11111111111111111111111111111111 (#8589934601)
                 575: cluster0-socket0-core0-commit: wid=0, sid=0, PC=0x800003f0, ex=ALU, tmask=11111111111111111111111111111111, wb=1, rd=4, sop=1, eop=1, data={0x8000755c, 0x8000755c, 0x8000755c, 0x8000755c, 0x8000755c, 0x8000755c, 0x8000755c, 0x8000755c, 0x8000755c, 0x8000755c, 0x8000755c, 0x8000755c, 0x8000755c, 0x8000755c, 0x8000755c, 0x8000755c, 0x8000755c, 0x8000755c, 0x8000755c, 0x8000755c, 0x8000755c, 0x8000755c, 0x8000755c, 0x8000755c, 0x8000755c, 0x8000755c, 0x8000755c, 0x8000755c, 0x8000755c, 0x8000755c, 0x8000755c, 0x8000755c} (#16)
                 575: cluster0-socket0-core0-issue0-ibuffer: wid=2, PC=0x800003e0, ex=ALU, op=SUB, tmask=11111111111111111111111111111111, wb=1, used_rs=011, rd=2, rs1=2, rs2=6, rs3=54, use_PC=0, use_imm=0, imm=0x68bf2327 (#8589934600)
                 575: [VX_scoreboard] Issuing u-op. ISSUE_ID=0, sel_wis=1, ex_type=0, op_type=0xf, uuid=#4294967303, PC=0x800003dc
                 575: cluster0-socket0-core0-fetch req: wid=1, PC=0x800003e4, tmask=11111111111111111111111111111111 (#4294967305)
                 577: cluster0-socket0-core0-commit: wid=3, sid=0, PC=0x800003d8, ex=SFU, tmask=11111111111111111111111111111111, wb=1, rd=5, sop=1, eop=1, data={0x7f, 0x7e, 0x7d, 0x7c, 0x7b, 0x7a, 0x79, 0x78, 0x77, 0x76, 0x75, 0x74, 0x73, 0x72, 0x71, 0x70, 0x6f, 0x6e, 0x6d, 0x6c, 0x6b, 0x6a, 0x69, 0x68, 0x67, 0x66, 0x65, 0x64, 0x63, 0x62, 0x61, 0x60} (#12884901894)
                 577: [VX_scoreboard] Issuing u-op. ISSUE_ID=0, sel_wis=2, ex_type=0, op_type=0xf, uuid=#8589934599, PC=0x800003dc
                 577: cluster0-socket0-core0-fetch req: wid=2, PC=0x800003e4, tmask=11111111111111111111111111111111 (#8589934601)
                 577: cluster0-socket0-core0-fetch rsp: wid=3, PC=0x800003e0, tmask=11111111111111111111111111111111, instr=0x40610133 (#12884901896)
                 579: cluster0-socket0-core0-schedule: wid=3, PC=0x800003e4, tmask=11111111111111111111111111111111 (#12884901897)
                 579: cluster0-socket0-core0-issue0-ibuffer: wid=0, PC=0x800003f8, ex=ALU, op=JALR, tmask=11111111111111111111111111111111, wb=0, used_rs=001, rd=0, rs1=1, rs2=62, rs3=54, use_PC=0, use_imm=1, imm=0x0 (#18)
                 581: cluster0-socket0-core0-issue0-dispatch: wid=1, sid=0, PC=0x800003dc, ex=ALU, op=SLLI, tmask=11111111111111111111111111111111, wb=1, rd=6, rs1_data={0x3f, 0x3e, 0x3d, 0x3c, 0x3b, 0x3a, 0x39, 0x38, 0x37, 0x36, 0x35, 0x34, 0x33, 0x32, 0x31, 0x30, 0x2f, 0x2e, 0x2d, 0x2c, 0x2b, 0x2a, 0x29, 0x28, 0x27, 0x26, 0x25, 0x24, 0x23, 0x22, 0x21, 0x20}, rs2_data={0x0, 0x0, 0x0, 0x0, 0x0, 0x0, 0x0, 0x0, 0x0, 0x0, 0x0, 0x0, 0x0, 0x0, 0x0, 0x0, 0x0, 0x0, 0x0, 0x0, 0x0, 0x0, 0x0, 0x0, 0x0, 0x0, 0x0, 0x0, 0x0, 0x0, 0x0, 0x0}, rs3_data={0x0, 0x0, 0x0, 0x0, 0x0, 0x0, 0x0, 0x0, 0x0, 0x0, 0x0, 0x0, 0x0, 0x0, 0x0, 0x0, 0x0, 0x0, 0x0, 0x0, 0x0, 0x0, 0x0, 0x0, 0x0, 0x0, 0x0, 0x0, 0x0, 0x0, 0x0, 0x0}, use_PC=0, use_imm=1, imm=0xd, sop=1, eop=1 (#4294967303)
                 581: [VX_scoreboard] Issuing u-op. ISSUE_ID=0, sel_wis=0, ex_type=0, op_type=0x0, uuid=#17, PC=0x800003f4
                 581: cluster0-socket0-core0-fetch req: wid=3, PC=0x800003e4, tmask=11111111111111111111111111111111 (#12884901897)
                 583: cluster0-socket0-core0-issue0-ibuffer: wid=3, PC=0x800003e0, ex=ALU, op=SUB, tmask=11111111111111111111111111111111, wb=1, used_rs=011, rd=2, rs1=2, rs2=6, rs3=54, use_PC=0, use_imm=0, imm=0x68bf2327 (#12884901896)
                 583: cluster0-socket0-core0-issue0-dispatch: wid=2, sid=0, PC=0x800003dc, ex=ALU, op=SLLI, tmask=11111111111111111111111111111111, wb=1, rd=6, rs1_data={0x5f, 0x5e, 0x5d, 0x5c, 0x5b, 0x5a, 0x59, 0x58, 0x57, 0x56, 0x55, 0x54, 0x53, 0x52, 0x51, 0x50, 0x4f, 0x4e, 0x4d, 0x4c, 0x4b, 0x4a, 0x49, 0x48, 0x47, 0x46, 0x45, 0x44, 0x43, 0x42, 0x41, 0x40}, rs2_data={0x0, 0x0, 0x0, 0x0, 0x0, 0x0, 0x0, 0x0, 0x0, 0x0, 0x0, 0x0, 0x0, 0x0, 0x0, 0x0, 0x0, 0x0, 0x0, 0x0, 0x0, 0x0, 0x0, 0x0, 0x0, 0x0, 0x0, 0x0, 0x0, 0x0, 0x0, 0x0}, rs3_data={0x0, 0x0, 0x0, 0x0, 0x0, 0x0, 0x0, 0x0, 0x0, 0x0, 0x0, 0x0, 0x0, 0x0, 0x0, 0x0, 0x0, 0x0, 0x0, 0x0, 0x0, 0x0, 0x0, 0x0, 0x0, 0x0, 0x0, 0x0, 0x0, 0x0, 0x0, 0x0}, use_PC=0, use_imm=1, imm=0xd, sop=1, eop=1 (#8589934599)
                 583: [VX_scoreboard] Issuing u-op. ISSUE_ID=0, sel_wis=0, ex_type=0, op_type=0x9, uuid=#18, PC=0x800003f8
                 583: cluster0-socket0-core0-fetch rsp: wid=1, PC=0x800003e4, tmask=11111111111111111111111111111111, instr=0x1c00313 (#4294967305)
                 585: cluster0-socket0-core0-schedule: wid=1, PC=0x800003e8, tmask=11111111111111111111111111111111 (#4294967306)
                 585: [VX_scoreboard] Issuing u-op. ISSUE_ID=0, sel_wis=3, ex_type=0, op_type=0xf, uuid=#12884901895, PC=0x800003dc
                 585: cluster0-socket0-core0-fetch rsp: wid=2, PC=0x800003e4, tmask=11111111111111111111111111111111, instr=0x1c00313 (#8589934601)
                 587: cluster0-socket0-core0-schedule: wid=2, PC=0x800003e8, tmask=11111111111111111111111111111111 (#8589934602)
                 587: cluster0-socket0-core0-commit: wid=1, sid=0, PC=0x800003dc, ex=ALU, tmask=11111111111111111111111111111111, wb=1, rd=6, sop=1, eop=1, data={0x7e000, 0x7c000, 0x7a000, 0x78000, 0x76000, 0x74000, 0x72000, 0x70000, 0x6e000, 0x6c000, 0x6a000, 0x68000, 0x66000, 0x64000, 0x62000, 0x60000, 0x5e000, 0x5c000, 0x5a000, 0x58000, 0x56000, 0x54000, 0x52000, 0x50000, 0x4e000, 0x4c000, 0x4a000, 0x48000, 0x46000, 0x44000, 0x42000, 0x40000} (#4294967303)
                 587: cluster0-socket0-core0-issue0-dispatch: wid=0, sid=0, PC=0x800003f4, ex=ALU, op=ADD, tmask=11111111111111111111111111111111, wb=1, rd=4, rs1_data={0x8000755c, 0x8000755c, 0x8000755c, 0x8000755c, 0x8000755c, 0x8000755c, 0x8000755c, 0x8000755c, 0x8000755c, 0x8000755c, 0x8000755c, 0x8000755c, 0x8000755c, 0x8000755c, 0x8000755c, 0x8000755c, 0x8000755c, 0x8000755c, 0x8000755c, 0x8000755c, 0x8000755c, 0x8000755c, 0x8000755c, 0x8000755c, 0x8000755c, 0x8000755c, 0x8000755c, 0x8000755c, 0x8000755c, 0x8000755c, 0x8000755c, 0x8000755c}, rs2_data={0x364, 0x348, 0x32c, 0x310, 0x2f4, 0x2d8, 0x2bc, 0x2a0, 0x284, 0x268, 0x24c, 0x230, 0x214, 0x1f8, 0x1dc, 0x1c0, 0x1a4, 0x188, 0x16c, 0x150, 0x134, 0x118, 0xfc, 0xe0, 0xc4, 0xa8, 0x8c, 0x70, 0x54, 0x38, 0x1c, 0x0}, rs3_data={0x0, 0x0, 0x0, 0x0, 0x0, 0x0, 0x0, 0x0, 0x0, 0x0, 0x0, 0x0, 0x0, 0x0, 0x0, 0x0, 0x0, 0x0, 0x0, 0x0, 0x0, 0x0, 0x0, 0x0, 0x0, 0x0, 0x0, 0x0, 0x0, 0x0, 0x0, 0x0}, use_PC=0, use_imm=0, imm=0x68bf2327, sop=1, eop=1 (#17)
                 587: cluster0-socket0-core0-fetch req: wid=1, PC=0x800003e8, tmask=11111111111111111111111111111111 (#4294967306)
