make: Entering directory '/home/geo/vortex/build/tests/regression/sgemm_tcu'
LD_LIBRARY_PATH=/home/geo/vortex/build/runtime: VORTEX_DRIVER=rtlsim ./sgemm_tcu -m16 -n16 -k64
open device connection
CONFIGS: num_threads=32, num_warps=1, num_cores=1, num_clusters=1, socket_size=1, local_mem_base=0xffff0000, num_barriers=1
                   1: [tcu_unit]: Activated (inner-product)
a_block:
{0xae5a1afa, 0xcd3a950b, 0x791cc93b, 0x78cd87e, 0x9163a825, 0xe3a0312b, 0x1e78a642, 0xf623a1f1, 0x2b358bbf, 0x4ec0db1, 0xa6f67800, 0x58cb1d49, 0x1edfde0a, 0x57f67cd, 0x2b3ccde6, 0xde9d4a6f, 0x446d240a, 0xa129dda3, 0x9a9d10ec, 0xd222001d, 0x542080cf, 0xbf10630f, 0xc08f0025, 0xf51f43ad, 0x208887b, 0x5ae5e6da, 0x6d1c1f12, 0x157b0cd9, 0xbec4f45d, 0xf42a95ca, 0x5121ec8f, 0x1077682f}
b_block:
{0x1848a2c9, 0x2b3cebc6, 0x8e89e711, 0x40123802, 0x9535ced8, 0xb0af091c, 0x6ff25076, 0x7c3277e6, 0xf738a37b, 0x75c4ccf4, 0x1d44018e, 0x22c5bad4, 0x73d0803d, 0x4d95adf8, 0x8a5da746, 0x954c7105, 0x4f5d6231, 0xd57ec49a, 0x26a2f009, 0xa209ddad, 0x1d235bd0, 0xd2529c06, 0x2dab6381, 0x34a502c3, 0x14cebf57, 0xfa10cf7a, 0x9fbe89a, 0x30ccdefc, 0x6e7bd383, 0xb8d5e95d, 0xc8e4a571, 0x377bccb5}
c_block:
{0x78fa7644, 0xcf4db2, 0xae9274db, 0x6f5736aa, 0x7c1f519a, 0x66534ab1, 0x6cce2f0, 0x33c14816, 0xfa36930b, 0xa6787183, 0xabf06fad, 0x88b91188, 0x8c0ff098, 0xb8a9e08a, 0x59786df1, 0x9cfc981f, 0x39ea7c3a, 0x917f8b19, 0xc1058fc2, 0xf3942a41, 0xd70a0d68, 0x7a36cc64, 0xea9eedc0, 0x56f46de6, 0x2078215b, 0x35f3ba53, 0xaddd6b80, 0xdef6ecbf, 0xad033404, 0x3c228333, 0x4056cfba, 0xee575897}
                   1: cluster0-socket0-core0-commit: wid=1, sid=1, PC=0x8c2e36ed, ex=ALU, tmask=00100111100001111000110000110100, wb=0, rd=57, sop=1, eop=0, data={0x6d73efc2, 0xfbc54e82, 0x273e5b71, 0xb4c70a03, 0x5702d232, 0xbae9f5f8, 0x6b943240, 0xcea45c3a, 0xab5259b3, 0x9ae7d706, 0x441e6627, 0x761b186a, 0x3e88efa3, 0x187a4cf2, 0xf06b591d, 0xa5b71a12, 0xab9688d5, 0x39a5fb65, 0xef040b48, 0xaa0eadec, 0x15994136, 0x4511aea2, 0x8444c24d, 0x34a6af39, 0x8f8a946, 0xde6f021f, 0x37e10b78, 0x19ab151a, 0x8a665248, 0xbe25735c, 0xcb4476cd, 0x17a9542f} (#15457288040272)
                   1: [VX_scoreboard] Issuing u-op. ISSUE_ID=0, sel_wis=0, ex_type=2, op_type=0xb, uuid=#9844649764311, PC=0x3e1daa3f
                   1: cluster0-socket0-core0-fetch rsp: wid=0, PC=0x19025144, tmask=00111000001000110001011100001101, instr=0xfd591711 (#10752843167325)
                   1: [tcu_fp] Execute done, delay_pipe=10111
                   3: cluster0-socket0-core0-commit: wid=1, sid=0, PC=0x3848ed88, ex=ALU, tmask=11011000001011111011000111010101, wb=1, rd=56, sop=0, eop=1, data={0x81b1f97f, 0xcd4ea396, 0x6e1463d0, 0x43888bd2, 0xd96cc080, 0xba97f63b, 0x738aee00, 0x4dd4e3ce, 0x93d01e3b, 0xaf62d947, 0x46c33182, 0x96c73ace, 0x282924d9, 0x62178a9, 0x251d3598, 0xcaffab01, 0x2f9f4455, 0x8c2e1026, 0x4f49fdf2, 0xd9464475, 0xbbab8bf6, 0x4e8abc99, 0x5c056776, 0xb10a30c2, 0xd4c670f9, 0xa8c635ad, 0xcff87e2c, 0xee140712, 0x37bbef2, 0x3ed9ecd0, 0x684497e4, 0x16dc0539} (#3136953592084)
                   3: [VX_scoreboard] Issuing u-op. ISSUE_ID=0, sel_wis=0, ex_type=3, op_type=0xf, uuid=#15043011951515, PC=0x47704a49
                   3: cluster0-socket0-core0-fetch req: wid=0, PC=0x4ca907d7, tmask=10010100001111000001100111110010 (#16870599016495)
                   3: [tcu_fp] Execute done, delay_pipe=01011
                   5: cluster0-socket0-core0-commit: wid=1, sid=0, PC=0x1d52648c, ex=ALU, tmask=00001110000100100110100111101101, wb=0, rd=51, sop=1, eop=1, data={0xc61d4427, 0x53cf2ca6, 0x6b93d0fd, 0x633d0d5a, 0xe5a4a5d0, 0xdcca3703, 0xed1b53c1, 0xf04e6431, 0x404b0e2f, 0x80389b5f, 0xce43224f, 0x6d839487, 0x35886532, 0xc21c204b, 0x2603bd14, 0x6a4e4bfd, 0x93297248, 0x7c2c5c00, 0xf2baa567, 0xfd10f8a2, 0x6197bf04, 0xf2decba5, 0xd070d874, 0x5a605a92, 0x1b1f40f0, 0x9a82e0a3, 0x3e4a37c8, 0xf7dd8b68, 0xa543a4f4, 0xedbafb47, 0xa56d1fc, 0x808ebc48} (#4681010408505)
                   7: cluster0-socket0-core0-schedule: wid=0, PC=0xcec10602, tmask=00000000000000000000000000000001 (#0)
                   9: cluster0-socket0-core0-schedule: wid=0, PC=0xcec10602, tmask=00000000000000000000000000000001 (#0)
                  11: cluster0-socket0-core0-schedule: wid=0, PC=0xcec10602, tmask=00000000000000000000000000000001 (#0)
                  13: cluster0-socket0-core0-schedule: wid=0, PC=0xcec10602, tmask=00000000000000000000000000000001 (#0)
                  15: cluster0-socket0-core0-schedule: wid=0, PC=0xcec10602, tmask=00000000000000000000000000000001 (#0)
[VXDRV] DEV_OPEN: hdevice=0x5bd178890650
[VXDRV] DCR_WRITE: hdevice=0x5bd178890650, addr=0x1, value=0x80000000
STARTUP_ADDR0                  17: cluster0-socket0-core0-schedule: wid=0, PC=0xcec10602, tmask=00000000000000000000000000000001 (#0)
                  19: cluster0-socket0-core0-schedule: wid=0, PC=0xcec10602, tmask=00000000000000000000000000000001 (#0)
[VXDRV] DCR_WRITE: hdevice=0x5bd178890650, addr=0x2, value=0x0
STARTUP_ADDR1                  21: cluster0-socket0-core0-schedule: wid=0, PC=0x80000000, tmask=00000000000000000000000000000001 (#0)
                  23: cluster0-socket0-core0-schedule: wid=0, PC=0x80000000, tmask=00000000000000000000000000000001 (#0)
[VXDRV] DCR_WRITE: hdevice=0x5bd178890650, addr=0x3, value=0x0
STARTUP_ARG0                  25: cluster0-socket0-core0-schedule: wid=0, PC=0x80000000, tmask=00000000000000000000000000000001 (#0)
                  27: cluster0-socket0-core0-schedule: wid=0, PC=0x80000000, tmask=00000000000000000000000000000001 (#0)
[VXDRV] DCR_WRITE: hdevice=0x5bd178890650, addr=0x4, value=0x0
STARTUP_ARG1                  29: cluster0-socket0-core0-schedule: wid=0, PC=0x80000000, tmask=00000000000000000000000000000001 (#0)
                  31: cluster0-socket0-core0-schedule: wid=0, PC=0x80000000, tmask=00000000000000000000000000000001 (#0)
[VXDRV] DCR_WRITE: hdevice=0x5bd178890650, addr=0x5, value=0x0
MPM_CLASS                  33: cluster0-socket0-core0-schedule: wid=0, PC=0x80000000, tmask=00000000000000000000000000000001 (#0)
                  35: cluster0-socket0-core0-schedule: wid=0, PC=0x80000000, tmask=00000000000000000000000000000001 (#0)
[VXDRV] DEV_CAPS: hdevice=0x5bd178890650, caps_id=7, value=495004422432
[VXDRV] DEV_CAPS: hdevice=0x5bd178890650, caps_id=1, value=32
input data type: fp16 (id=1)
output data type: fp32 (id=0)
WMMA Core Dimension: M=8, N=4, K=4
WMMA Tile Dimension: M=16, N=16, K=32
matrix A: 16x64
matrix B: 64x16
matrix C: 16x16
allocate device memory
[VXDRV] MEM_ALLOC: hdevice=0x5bd178890650, size=2048, flags=0x1, hbuffer=0x5bd1789e2380
[VXDRV] MEM_ADDRESS: hbuffer=0x5bd1789e2380, address=0x10000
[VXDRV] MEM_ALLOC: hdevice=0x5bd178890650, size=2048, flags=0x1, hbuffer=0x5bd1789e23a0
[VXDRV] MEM_ADDRESS: hbuffer=0x5bd1789e23a0, address=0x10800
[VXDRV] MEM_ALLOC: hdevice=0x5bd178890650, size=1024, flags=0x2, hbuffer=0x5bd1789e2450
[VXDRV] MEM_ADDRESS: hbuffer=0x5bd1789e2450, address=0x11000
A_addr=0x10000
B_addr=0x10800
C_addr=0x11000
upload matrix A buffer
[VXDRV] COPY_TO_DEV: hbuffer=0x5bd1789e2380, host_addr=0x5bd1789e2470, dst_offset=0, size=2048
upload matrix B buffer
[VXDRV] COPY_TO_DEV: hbuffer=0x5bd1789e23a0, host_addr=0x5bd1789e2c80, dst_offset=0, size=2048
upload program
[VXDRV] MEM_RESERVE: hdevice=0x5bd178890650, address=0x80000000, size=29972, flags=0x0, hbuffer=0x5bd1789edc90
[VXDRV] MEM_ACCESS: hbuffer=0x5bd1789edc90, offset=0, size=29944, flags=1
[VXDRV] MEM_ACCESS: hbuffer=0x5bd1789edc90, offset=29944, size=28, flags=3
[VXDRV] COPY_TO_DEV: hbuffer=0x5bd1789edc90, host_addr=0x5bd1789e66c0, dst_offset=0, size=29944
upload kernel argument
[VXDRV] MEM_ALLOC: hdevice=0x5bd178890650, size=72, flags=0x1, hbuffer=0x5bd1789e4730
[VXDRV] COPY_TO_DEV: hbuffer=0x5bd1789e4730, host_addr=0x5bd15730d1c0, dst_offset=0, size=72
start device
[VXDRV] START: hdevice=0x5bd178890650, hkernel=0x5bd1789edc90, harguments=0x5bd1789e4730
STARTUP_ADDR0                  37: cluster0-socket0-core0-schedule: wid=0, PC=0x80000000, tmask=00000000000000000000000000000001 (#0)
                  39: cluster0-socket0-core0-schedule: wid=0, PC=0x80000000, tmask=00000000000000000000000000000001 (#0)
STARTUP_ADDR1                  41: cluster0-socket0-core0-schedule: wid=0, PC=0x80000000, tmask=00000000000000000000000000000001 (#0)
                  43: cluster0-socket0-core0-schedule: wid=0, PC=0x80000000, tmask=00000000000000000000000000000001 (#0)
STARTUP_ARG0                  45: cluster0-socket0-core0-schedule: wid=0, PC=0x80000000, tmask=00000000000000000000000000000001 (#0)
                  47: cluster0-socket0-core0-schedule: wid=0, PC=0x80000000, tmask=00000000000000000000000000000001 (#0)
STARTUP_ARG1                  49: cluster0-socket0-core0-schedule: wid=0, PC=0x80000000, tmask=00000000000000000000000000000001 (#0)
                  51: cluster0-socket0-core0-schedule: wid=0, PC=0x80000000, tmask=00000000000000000000000000000001 (#0)
wait for completion
[VXDRV] READY_WAIT: hdevice=0x5bd178890650, timeout=86400000
52: [sim] run()
                  53: cluster0-socket0-core0-schedule: wid=0, PC=0x80000000, tmask=00000000000000000000000000000001 (#0)
                  55: cluster0-socket0-core0-schedule: wid=0, PC=0x80000000, tmask=00000000000000000000000000000001 (#0)
                  57: cluster0-socket0-core0-schedule: wid=0, PC=0x80000000, tmask=00000000000000000000000000000001 (#0)
                  59: cluster0-socket0-core0-schedule: wid=0, PC=0x80000000, tmask=00000000000000000000000000000001 (#0)
                  61: cluster0-socket0-core0-schedule: wid=0, PC=0x80000000, tmask=00000000000000000000000000000001 (#0)
                  63: cluster0-socket0-core0-schedule: wid=0, PC=0x80000000, tmask=00000000000000000000000000000001 (#0)
                  65: cluster0-socket0-core0-schedule: wid=0, PC=0x80000000, tmask=00000000000000000000000000000001 (#0)
                  67: cluster0-socket0-core0-schedule: wid=0, PC=0x80000000, tmask=00000000000000000000000000000001 (#0)
                  69: cluster0-socket0-core0-schedule: wid=0, PC=0x80000000, tmask=00000000000000000000000000000001 (#0)
                  71: cluster0-socket0-core0-schedule: wid=0, PC=0x80000000, tmask=00000000000000000000000000000001 (#0)
                  73: cluster0-socket0-core0-schedule: wid=0, PC=0x80000000, tmask=00000000000000000000000000000001 (#0)
                  75: cluster0-socket0-core0-schedule: wid=0, PC=0x80000000, tmask=00000000000000000000000000000001 (#0)
                  77: cluster0-socket0-core0-fetch req: wid=0, PC=0x80000000, tmask=00000000000000000000000000000001 (#0)
                 267: cluster0-socket0-core0-fetch rsp: wid=0, PC=0x80000000, tmask=00000000000000000000000000000001, instr=0xfc1022f3 (#0)
                 269: cluster0-socket0-core0-schedule: wid=0, PC=0x80000004, tmask=00000000000000000000000000000001 (#1)
                 269: cluster0-socket0-core0-issue0-ibuffer: wid=0, PC=0x80000000, ex=SFU, op=CSRRS, tmask=00000000000000000000000000000001, wb=1, used_rs=001, rd=5, rs1=0, rs2=37, rs3=23, addr=0xfc1, use_imm=0, imm=0x13 (#0)
                 271: cluster0-socket0-core0-fetch req: wid=0, PC=0x80000004, tmask=00000000000000000000000000000001 (#1)
                 273: [VX_scoreboard] Issuing u-op. ISSUE_ID=0, sel_wis=0, ex_type=2, op_type=0x7, uuid=#0, PC=0x80000000
                 279: cluster0-socket0-core0-issue0-dispatch: wid=0, sid=0, PC=0x80000000, ex=SFU, op=CSRRS, tmask=00000000000000000000000000000001, wb=1, rd=5, rs1_data={0x0, 0x0, 0x0, 0x0, 0x0, 0x0, 0x0, 0x0, 0x0, 0x0, 0x0, 0x0, 0x0, 0x0, 0x0, 0x0, 0x0, 0x0, 0x0, 0x0, 0x0, 0x0, 0x0, 0x0, 0x0, 0x0, 0x0, 0x0, 0x0, 0x0, 0x0, 0x0}, rs2_data={0x0, 0x0, 0x0, 0x0, 0x0, 0x0, 0x0, 0x0, 0x0, 0x0, 0x0, 0x0, 0x0, 0x0, 0x0, 0x0, 0x0, 0x0, 0x0, 0x0, 0x0, 0x0, 0x0, 0x0, 0x0, 0x0, 0x0, 0x0, 0x0, 0x0, 0x0, 0x0}, rs3_data={0x0, 0x0, 0x0, 0x0, 0x0, 0x0, 0x0, 0x0, 0x0, 0x0, 0x0, 0x0, 0x0, 0x0, 0x0, 0x0, 0x0, 0x0, 0x0, 0x0, 0x0, 0x0, 0x0, 0x0, 0x0, 0x0, 0x0, 0x0, 0x0, 0x0, 0x0, 0x0}, addr=0xfc1, use_imm=0, imm=0x13, sop=1, eop=1 (#0)
                 279: cluster0-socket0-core0-fetch rsp: wid=0, PC=0x80000004, tmask=00000000000000000000000000000001, instr=0x317 (#1)
                 281: cluster0-socket0-core0-schedule: wid=0, PC=0x80000008, tmask=00000000000000000000000000000001 (#2)
                 281: cluster0-socket0-core0-issue0-ibuffer: wid=0, PC=0x80000004, ex=ALU, op=AUIPC, tmask=00000000000000000000000000000001, wb=1, used_rs=000, rd=6, rs1=3, rs2=37, rs3=23, use_PC=1, use_imm=1, imm=0x0 (#1)
                 283: cluster0-socket0-core0-fetch req: wid=0, PC=0x80000008, tmask=00000000000000000000000000000001 (#2)
                 285: [VX_scoreboard] Issuing u-op. ISSUE_ID=0, sel_wis=0, ex_type=0, op_type=0x3, uuid=#1, PC=0x80000004
                 289: cluster0-socket0-core0-commit: wid=0, sid=0, PC=0x80000000, ex=SFU, tmask=00000000000000000000000000000001, wb=1, rd=5, sop=1, eop=1, data={0x1, 0x1, 0x1, 0x1, 0x1, 0x1, 0x1, 0x1, 0x1, 0x1, 0x1, 0x1, 0x1, 0x1, 0x1, 0x1, 0x1, 0x1, 0x1, 0x1, 0x1, 0x1, 0x1, 0x1, 0x1, 0x1, 0x1, 0x1, 0x1, 0x1, 0x1, 0x1} (#0)
                 291: cluster0-socket0-core0-issue0-dispatch: wid=0, sid=0, PC=0x80000004, ex=ALU, op=AUIPC, tmask=00000000000000000000000000000001, wb=1, rd=6, rs1_data={0x0, 0x0, 0x0, 0x0, 0x0, 0x0, 0x0, 0x0, 0x0, 0x0, 0x0, 0x0, 0x0, 0x0, 0x0, 0x0, 0x0, 0x0, 0x0, 0x0, 0x0, 0x0, 0x0, 0x0, 0x0, 0x0, 0x0, 0x0, 0x0, 0x0, 0x0, 0x0}, rs2_data={0x0, 0x0, 0x0, 0x0, 0x0, 0x0, 0x0, 0x0, 0x0, 0x0, 0x0, 0x0, 0x0, 0x0, 0x0, 0x0, 0x0, 0x0, 0x0, 0x0, 0x0, 0x0, 0x0, 0x0, 0x0, 0x0, 0x0, 0x0, 0x0, 0x0, 0x0, 0x0}, rs3_data={0x0, 0x0, 0x0, 0x0, 0x0, 0x0, 0x0, 0x0, 0x0, 0x0, 0x0, 0x0, 0x0, 0x0, 0x0, 0x0, 0x0, 0x0, 0x0, 0x0, 0x0, 0x0, 0x0, 0x0, 0x0, 0x0, 0x0, 0x0, 0x0, 0x0, 0x0, 0x0}, use_PC=1, use_imm=1, imm=0x0, sop=1, eop=1 (#1)
                 291: cluster0-socket0-core0-fetch rsp: wid=0, PC=0x80000008, tmask=00000000000000000000000000000001, instr=0x3b830313 (#2)
                 293: cluster0-socket0-core0-schedule: wid=0, PC=0x8000000c, tmask=00000000000000000000000000000001 (#3)
                 293: cluster0-socket0-core0-issue0-ibuffer: wid=0, PC=0x80000008, ex=ALU, op=ADDI, tmask=00000000000000000000000000000001, wb=1, used_rs=001, rd=6, rs1=6, rs2=37, rs3=23, use_PC=0, use_imm=1, imm=0x3b8 (#2)
                 295: cluster0-socket0-core0-fetch req: wid=0, PC=0x8000000c, tmask=00000000000000000000000000000001 (#3)
                 297: cluster0-socket0-core0-commit: wid=0, sid=0, PC=0x80000004, ex=ALU, tmask=00000000000000000000000000000001, wb=1, rd=6, sop=1, eop=1, data={0x80000004, 0x80000004, 0x80000004, 0x80000004, 0x80000004, 0x80000004, 0x80000004, 0x80000004, 0x80000004, 0x80000004, 0x80000004, 0x80000004, 0x80000004, 0x80000004, 0x80000004, 0x80000004, 0x80000004, 0x80000004, 0x80000004, 0x80000004, 0x80000004, 0x80000004, 0x80000004, 0x80000004, 0x80000004, 0x80000004, 0x80000004, 0x80000004, 0x80000004, 0x80000004, 0x80000004, 0x80000004} (#1)
                 303: [VX_scoreboard] Issuing u-op. ISSUE_ID=0, sel_wis=0, ex_type=0, op_type=0x0, uuid=#2, PC=0x80000008
                 303: cluster0-socket0-core0-fetch rsp: wid=0, PC=0x8000000c, tmask=00000000000000000000000000000001, instr=0x62900b (#3)
                 305: cluster0-socket0-core0-issue0-ibuffer: wid=0, PC=0x8000000c, ex=SFU, op=WSPAWN, tmask=00000000000000000000000000000001, wb=0, used_rs=011, rd=1, rs1=5, rs2=6, rs3=23,  (#3)
                 309: cluster0-socket0-core0-issue0-dispatch: wid=0, sid=0, PC=0x80000008, ex=ALU, op=ADDI, tmask=00000000000000000000000000000001, wb=1, rd=6, rs1_data={0x0, 0x0, 0x0, 0x0, 0x0, 0x0, 0x0, 0x0, 0x0, 0x0, 0x0, 0x0, 0x0, 0x0, 0x0, 0x0, 0x0, 0x0, 0x0, 0x0, 0x0, 0x0, 0x0, 0x0, 0x0, 0x0, 0x0, 0x0, 0x0, 0x0, 0x0, 0x80000004}, rs2_data={0x0, 0x0, 0x0, 0x0, 0x0, 0x0, 0x0, 0x0, 0x0, 0x0, 0x0, 0x0, 0x0, 0x0, 0x0, 0x0, 0x0, 0x0, 0x0, 0x0, 0x0, 0x0, 0x0, 0x0, 0x0, 0x0, 0x0, 0x0, 0x0, 0x0, 0x0, 0x0}, rs3_data={0x0, 0x0, 0x0, 0x0, 0x0, 0x0, 0x0, 0x0, 0x0, 0x0, 0x0, 0x0, 0x0, 0x0, 0x0, 0x0, 0x0, 0x0, 0x0, 0x0, 0x0, 0x0, 0x0, 0x0, 0x0, 0x0, 0x0, 0x0, 0x0, 0x0, 0x0, 0x0}, use_PC=0, use_imm=1, imm=0x3b8, sop=1, eop=1 (#2)
                 315: cluster0-socket0-core0-commit: wid=0, sid=0, PC=0x80000008, ex=ALU, tmask=00000000000000000000000000000001, wb=1, rd=6, sop=1, eop=1, data={0x3b8, 0x3b8, 0x3b8, 0x3b8, 0x3b8, 0x3b8, 0x3b8, 0x3b8, 0x3b8, 0x3b8, 0x3b8, 0x3b8, 0x3b8, 0x3b8, 0x3b8, 0x3b8, 0x3b8, 0x3b8, 0x3b8, 0x3b8, 0x3b8, 0x3b8, 0x3b8, 0x3b8, 0x3b8, 0x3b8, 0x3b8, 0x3b8, 0x3b8, 0x3b8, 0x3b8, 0x800003bc} (#2)
                 321: [VX_scoreboard] Issuing u-op. ISSUE_ID=0, sel_wis=0, ex_type=2, op_type=0x1, uuid=#3, PC=0x8000000c
                 327: cluster0-socket0-core0-issue0-dispatch: wid=0, sid=0, PC=0x8000000c, ex=SFU, op=WSPAWN, tmask=00000000000000000000000000000001, wb=0, rd=1, rs1_data={0x0, 0x0, 0x0, 0x0, 0x0, 0x0, 0x0, 0x0, 0x0, 0x0, 0x0, 0x0, 0x0, 0x0, 0x0, 0x0, 0x0, 0x0, 0x0, 0x0, 0x0, 0x0, 0x0, 0x0, 0x0, 0x0, 0x0, 0x0, 0x0, 0x0, 0x0, 0x1}, rs2_data={0x0, 0x0, 0x0, 0x0, 0x0, 0x0, 0x0, 0x0, 0x0, 0x0, 0x0, 0x0, 0x0, 0x0, 0x0, 0x0, 0x0, 0x0, 0x0, 0x0, 0x0, 0x0, 0x0, 0x0, 0x0, 0x0, 0x0, 0x0, 0x0, 0x0, 0x0, 0x800003bc}, rs3_data={0x0, 0x0, 0x0, 0x0, 0x0, 0x0, 0x0, 0x0, 0x0, 0x0, 0x0, 0x0, 0x0, 0x0, 0x0, 0x0, 0x0, 0x0, 0x0, 0x0, 0x0, 0x0, 0x0, 0x0, 0x0, 0x0, 0x0, 0x0, 0x0, 0x0, 0x0, 0x0}, , sop=1, eop=1 (#3)
                 337: cluster0-socket0-core0-schedule: wid=0, PC=0x80000010, tmask=00000000000000000000000000000001 (#4)
                 337: cluster0-socket0-core0-commit: wid=0, sid=0, PC=0x8000000c, ex=SFU, tmask=00000000000000000000000000000001, wb=0, rd=1, sop=1, eop=1, data={0x0, 0x0, 0x0, 0x0, 0x0, 0x0, 0x0, 0x0, 0x0, 0x0, 0x0, 0x0, 0x0, 0x0, 0x0, 0x0, 0x0, 0x0, 0x0, 0x0, 0x0, 0x0, 0x0, 0x0, 0x0, 0x0, 0x0, 0x0, 0x0, 0x0, 0x0, 0x0} (#3)
                 339: cluster0-socket0-core0-fetch req: wid=0, PC=0x80000010, tmask=00000000000000000000000000000001 (#4)
                 347: cluster0-socket0-core0-fetch rsp: wid=0, PC=0x80000010, tmask=00000000000000000000000000000001, instr=0xfff00293 (#4)
                 349: cluster0-socket0-core0-schedule: wid=0, PC=0x80000014, tmask=00000000000000000000000000000001 (#5)
                 349: cluster0-socket0-core0-issue0-ibuffer: wid=0, PC=0x80000010, ex=ALU, op=ADDI, tmask=00000000000000000000000000000001, wb=1, used_rs=001, rd=5, rs1=0, rs2=37, rs3=23, use_PC=0, use_imm=1, imm=0xffffffff (#4)
                 351: cluster0-socket0-core0-fetch req: wid=0, PC=0x80000014, tmask=00000000000000000000000000000001 (#5)
                 353: [VX_scoreboard] Issuing u-op. ISSUE_ID=0, sel_wis=0, ex_type=0, op_type=0x0, uuid=#4, PC=0x80000010
                 359: cluster0-socket0-core0-issue0-dispatch: wid=0, sid=0, PC=0x80000010, ex=ALU, op=ADDI, tmask=00000000000000000000000000000001, wb=1, rd=5, rs1_data={0x0, 0x0, 0x0, 0x0, 0x0, 0x0, 0x0, 0x0, 0x0, 0x0, 0x0, 0x0, 0x0, 0x0, 0x0, 0x0, 0x0, 0x0, 0x0, 0x0, 0x0, 0x0, 0x0, 0x0, 0x0, 0x0, 0x0, 0x0, 0x0, 0x0, 0x0, 0x0}, rs2_data={0x0, 0x0, 0x0, 0x0, 0x0, 0x0, 0x0, 0x0, 0x0, 0x0, 0x0, 0x0, 0x0, 0x0, 0x0, 0x0, 0x0, 0x0, 0x0, 0x0, 0x0, 0x0, 0x0, 0x0, 0x0, 0x0, 0x0, 0x0, 0x0, 0x0, 0x0, 0x0}, rs3_data={0x0, 0x0, 0x0, 0x0, 0x0, 0x0, 0x0, 0x0, 0x0, 0x0, 0x0, 0x0, 0x0, 0x0, 0x0, 0x0, 0x0, 0x0, 0x0, 0x0, 0x0, 0x0, 0x0, 0x0, 0x0, 0x0, 0x0, 0x0, 0x0, 0x0, 0x0, 0x0}, use_PC=0, use_imm=1, imm=0xffffffff, sop=1, eop=1 (#4)
                 359: cluster0-socket0-core0-fetch rsp: wid=0, PC=0x80000014, tmask=00000000000000000000000000000001, instr=0x2800b (#5)
                 361: cluster0-socket0-core0-issue0-ibuffer: wid=0, PC=0x80000014, ex=SFU, op=TMC, tmask=00000000000000000000000000000001, wb=0, used_rs=001, rd=1, rs1=5, rs2=37, rs3=23,  (#5)
                 365: cluster0-socket0-core0-commit: wid=0, sid=0, PC=0x80000010, ex=ALU, tmask=00000000000000000000000000000001, wb=1, rd=5, sop=1, eop=1, data={0xffffffff, 0xffffffff, 0xffffffff, 0xffffffff, 0xffffffff, 0xffffffff, 0xffffffff, 0xffffffff, 0xffffffff, 0xffffffff, 0xffffffff, 0xffffffff, 0xffffffff, 0xffffffff, 0xffffffff, 0xffffffff, 0xffffffff, 0xffffffff, 0xffffffff, 0xffffffff, 0xffffffff, 0xffffffff, 0xffffffff, 0xffffffff, 0xffffffff, 0xffffffff, 0xffffffff, 0xffffffff, 0xffffffff, 0xffffffff, 0xffffffff, 0xffffffff} (#4)
                 371: [VX_scoreboard] Issuing u-op. ISSUE_ID=0, sel_wis=0, ex_type=2, op_type=0x0, uuid=#5, PC=0x80000014
                 377: cluster0-socket0-core0-issue0-dispatch: wid=0, sid=0, PC=0x80000014, ex=SFU, op=TMC, tmask=00000000000000000000000000000001, wb=0, rd=1, rs1_data={0x0, 0x0, 0x0, 0x0, 0x0, 0x0, 0x0, 0x0, 0x0, 0x0, 0x0, 0x0, 0x0, 0x0, 0x0, 0x0, 0x0, 0x0, 0x0, 0x0, 0x0, 0x0, 0x0, 0x0, 0x0, 0x0, 0x0, 0x0, 0x0, 0x0, 0x0, 0xffffffff}, rs2_data={0x0, 0x0, 0x0, 0x0, 0x0, 0x0, 0x0, 0x0, 0x0, 0x0, 0x0, 0x0, 0x0, 0x0, 0x0, 0x0, 0x0, 0x0, 0x0, 0x0, 0x0, 0x0, 0x0, 0x0, 0x0, 0x0, 0x0, 0x0, 0x0, 0x0, 0x0, 0x0}, rs3_data={0x0, 0x0, 0x0, 0x0, 0x0, 0x0, 0x0, 0x0, 0x0, 0x0, 0x0, 0x0, 0x0, 0x0, 0x0, 0x0, 0x0, 0x0, 0x0, 0x0, 0x0, 0x0, 0x0, 0x0, 0x0, 0x0, 0x0, 0x0, 0x0, 0x0, 0x0, 0x0}, , sop=1, eop=1 (#5)
                 385: cluster0-socket0-core0-schedule: wid=0, PC=0x80000018, tmask=11111111111111111111111111111111 (#6)
                 387: cluster0-socket0-core0-commit: wid=0, sid=0, PC=0x80000014, ex=SFU, tmask=00000000000000000000000000000001, wb=0, rd=1, sop=1, eop=1, data={0x0, 0x0, 0x0, 0x0, 0x0, 0x0, 0x0, 0x0, 0x0, 0x0, 0x0, 0x0, 0x0, 0x0, 0x0, 0x0, 0x0, 0x0, 0x0, 0x0, 0x0, 0x0, 0x0, 0x0, 0x0, 0x0, 0x0, 0x0, 0x0, 0x0, 0x0, 0x0} (#5)
                 387: cluster0-socket0-core0-fetch req: wid=0, PC=0x80000018, tmask=11111111111111111111111111111111 (#6)
                 395: cluster0-socket0-core0-fetch rsp: wid=0, PC=0x80000018, tmask=11111111111111111111111111111111, instr=0x374000ef (#6)
                 397: cluster0-socket0-core0-issue0-ibuffer: wid=0, PC=0x80000018, ex=ALU, op=JAL, tmask=11111111111111111111111111111111, wb=1, used_rs=000, rd=1, rs1=3, rs2=37, rs3=23, use_PC=1, use_imm=1, imm=0x374 (#6)
                 401: [VX_scoreboard] Issuing u-op. ISSUE_ID=0, sel_wis=0, ex_type=0, op_type=0x8, uuid=#6, PC=0x80000018
                 407: cluster0-socket0-core0-issue0-dispatch: wid=0, sid=0, PC=0x80000018, ex=ALU, op=JAL, tmask=11111111111111111111111111111111, wb=1, rd=1, rs1_data={0x0, 0x0, 0x0, 0x0, 0x0, 0x0, 0x0, 0x0, 0x0, 0x0, 0x0, 0x0, 0x0, 0x0, 0x0, 0x0, 0x0, 0x0, 0x0, 0x0, 0x0, 0x0, 0x0, 0x0, 0x0, 0x0, 0x0, 0x0, 0x0, 0x0, 0x0, 0x0}, rs2_data={0x0, 0x0, 0x0, 0x0, 0x0, 0x0, 0x0, 0x0, 0x0, 0x0, 0x0, 0x0, 0x0, 0x0, 0x0, 0x0, 0x0, 0x0, 0x0, 0x0, 0x0, 0x0, 0x0, 0x0, 0x0, 0x0, 0x0, 0x0, 0x0, 0x0, 0x0, 0x0}, rs3_data={0x0, 0x0, 0x0, 0x0, 0x0, 0x0, 0x0, 0x0, 0x0, 0x0, 0x0, 0x0, 0x0, 0x0, 0x0, 0x0, 0x0, 0x0, 0x0, 0x0, 0x0, 0x0, 0x0, 0x0, 0x0, 0x0, 0x0, 0x0, 0x0, 0x0, 0x0, 0x0}, use_PC=1, use_imm=1, imm=0x374, sop=1, eop=1 (#6)
                 413: cluster0-socket0-core0-commit: wid=0, sid=0, PC=0x80000018, ex=ALU, tmask=11111111111111111111111111111111, wb=1, rd=1, sop=1, eop=1, data={0x8000001c, 0x8000001c, 0x8000001c, 0x8000001c, 0x8000001c, 0x8000001c, 0x8000001c, 0x8000001c, 0x8000001c, 0x8000001c, 0x8000001c, 0x8000001c, 0x8000001c, 0x8000001c, 0x8000001c, 0x8000001c, 0x8000001c, 0x8000001c, 0x8000001c, 0x8000001c, 0x8000001c, 0x8000001c, 0x8000001c, 0x8000001c, 0x8000001c, 0x8000001c, 0x8000001c, 0x8000001c, 0x8000001c, 0x8000001c, 0x8000001c, 0x8000001c} (#6)
                 415: cluster0-socket0-core0-schedule: wid=0, PC=0x8000038c, tmask=11111111111111111111111111111111 (#7)
                 417: cluster0-socket0-core0-fetch req: wid=0, PC=0x8000038c, tmask=11111111111111111111111111111111 (#7)
                 469: cluster0-socket0-core0-fetch rsp: wid=0, PC=0x8000038c, tmask=11111111111111111111111111111111, instr=0x8197 (#7)
                 471: cluster0-socket0-core0-schedule: wid=0, PC=0x80000390, tmask=11111111111111111111111111111111 (#8)
                 471: cluster0-socket0-core0-issue0-ibuffer: wid=0, PC=0x8000038c, ex=ALU, op=AUIPC, tmask=11111111111111111111111111111111, wb=1, used_rs=000, rd=3, rs1=3, rs2=37, rs3=23, use_PC=1, use_imm=1, imm=0x8000 (#7)
                 473: cluster0-socket0-core0-fetch req: wid=0, PC=0x80000390, tmask=11111111111111111111111111111111 (#8)
                 475: [VX_scoreboard] Issuing u-op. ISSUE_ID=0, sel_wis=0, ex_type=0, op_type=0x3, uuid=#7, PC=0x8000038c
                 481: cluster0-socket0-core0-issue0-dispatch: wid=0, sid=0, PC=0x8000038c, ex=ALU, op=AUIPC, tmask=11111111111111111111111111111111, wb=1, rd=3, rs1_data={0x0, 0x0, 0x0, 0x0, 0x0, 0x0, 0x0, 0x0, 0x0, 0x0, 0x0, 0x0, 0x0, 0x0, 0x0, 0x0, 0x0, 0x0, 0x0, 0x0, 0x0, 0x0, 0x0, 0x0, 0x0, 0x0, 0x0, 0x0, 0x0, 0x0, 0x0, 0x0}, rs2_data={0x0, 0x0, 0x0, 0x0, 0x0, 0x0, 0x0, 0x0, 0x0, 0x0, 0x0, 0x0, 0x0, 0x0, 0x0, 0x0, 0x0, 0x0, 0x0, 0x0, 0x0, 0x0, 0x0, 0x0, 0x0, 0x0, 0x0, 0x0, 0x0, 0x0, 0x0, 0x0}, rs3_data={0x0, 0x0, 0x0, 0x0, 0x0, 0x0, 0x0, 0x0, 0x0, 0x0, 0x0, 0x0, 0x0, 0x0, 0x0, 0x0, 0x0, 0x0, 0x0, 0x0, 0x0, 0x0, 0x0, 0x0, 0x0, 0x0, 0x0, 0x0, 0x0, 0x0, 0x0, 0x0}, use_PC=1, use_imm=1, imm=0x8000, sop=1, eop=1 (#7)
                 481: cluster0-socket0-core0-fetch rsp: wid=0, PC=0x80000390, tmask=11111111111111111111111111111111, instr=0x8b818193 (#8)
                 483: cluster0-socket0-core0-schedule: wid=0, PC=0x80000394, tmask=11111111111111111111111111111111 (#9)
                 483: cluster0-socket0-core0-issue0-ibuffer: wid=0, PC=0x80000390, ex=ALU, op=ADDI, tmask=11111111111111111111111111111111, wb=1, used_rs=001, rd=3, rs1=3, rs2=37, rs3=23, use_PC=0, use_imm=1, imm=0xfffff8b8 (#8)
                 485: cluster0-socket0-core0-fetch req: wid=0, PC=0x80000394, tmask=11111111111111111111111111111111 (#9)
                 487: cluster0-socket0-core0-commit: wid=0, sid=0, PC=0x8000038c, ex=ALU, tmask=11111111111111111111111111111111, wb=1, rd=3, sop=1, eop=1, data={0x8000838c, 0x8000838c, 0x8000838c, 0x8000838c, 0x8000838c, 0x8000838c, 0x8000838c, 0x8000838c, 0x8000838c, 0x8000838c, 0x8000838c, 0x8000838c, 0x8000838c, 0x8000838c, 0x8000838c, 0x8000838c, 0x8000838c, 0x8000838c, 0x8000838c, 0x8000838c, 0x8000838c, 0x8000838c, 0x8000838c, 0x8000838c, 0x8000838c, 0x8000838c, 0x8000838c, 0x8000838c, 0x8000838c, 0x8000838c, 0x8000838c, 0x8000838c} (#7)
                 493: [VX_scoreboard] Issuing u-op. ISSUE_ID=0, sel_wis=0, ex_type=0, op_type=0x0, uuid=#8, PC=0x80000390
                 493: cluster0-socket0-core0-fetch rsp: wid=0, PC=0x80000394, tmask=11111111111111111111111111111111, instr=0xffff0137 (#9)
                 495: cluster0-socket0-core0-schedule: wid=0, PC=0x80000398, tmask=11111111111111111111111111111111 (#10)
                 495: cluster0-socket0-core0-issue0-ibuffer: wid=0, PC=0x80000394, ex=ALU, op=LUI, tmask=11111111111111111111111111111111, wb=1, used_rs=000, rd=2, rs1=3, rs2=37, rs3=23, use_PC=0, use_imm=1, imm=0xffff0000 (#9)
                 497: cluster0-socket0-core0-fetch req: wid=0, PC=0x80000398, tmask=11111111111111111111111111111111 (#10)
                 499: cluster0-socket0-core0-issue0-dispatch: wid=0, sid=0, PC=0x80000390, ex=ALU, op=ADDI, tmask=11111111111111111111111111111111, wb=1, rd=3, rs1_data={0x8000838c, 0x8000838c, 0x8000838c, 0x8000838c, 0x8000838c, 0x8000838c, 0x8000838c, 0x8000838c, 0x8000838c, 0x8000838c, 0x8000838c, 0x8000838c, 0x8000838c, 0x8000838c, 0x8000838c, 0x8000838c, 0x8000838c, 0x8000838c, 0x8000838c, 0x8000838c, 0x8000838c, 0x8000838c, 0x8000838c, 0x8000838c, 0x8000838c, 0x8000838c, 0x8000838c, 0x8000838c, 0x8000838c, 0x8000838c, 0x8000838c, 0x8000838c}, rs2_data={0x0, 0x0, 0x0, 0x0, 0x0, 0x0, 0x0, 0x0, 0x0, 0x0, 0x0, 0x0, 0x0, 0x0, 0x0, 0x0, 0x0, 0x0, 0x0, 0x0, 0x0, 0x0, 0x0, 0x0, 0x0, 0x0, 0x0, 0x0, 0x0, 0x0, 0x0, 0x0}, rs3_data={0x0, 0x0, 0x0, 0x0, 0x0, 0x0, 0x0, 0x0, 0x0, 0x0, 0x0, 0x0, 0x0, 0x0, 0x0, 0x0, 0x0, 0x0, 0x0, 0x0, 0x0, 0x0, 0x0, 0x0, 0x0, 0x0, 0x0, 0x0, 0x0, 0x0, 0x0, 0x0}, use_PC=0, use_imm=1, imm=0xfffff8b8, sop=1, eop=1 (#8)
                 499: [VX_scoreboard] Issuing u-op. ISSUE_ID=0, sel_wis=0, ex_type=0, op_type=0x2, uuid=#9, PC=0x80000394
                 505: cluster0-socket0-core0-commit: wid=0, sid=0, PC=0x80000390, ex=ALU, tmask=11111111111111111111111111111111, wb=1, rd=3, sop=1, eop=1, data={0x80007c44, 0x80007c44, 0x80007c44, 0x80007c44, 0x80007c44, 0x80007c44, 0x80007c44, 0x80007c44, 0x80007c44, 0x80007c44, 0x80007c44, 0x80007c44, 0x80007c44, 0x80007c44, 0x80007c44, 0x80007c44, 0x80007c44, 0x80007c44, 0x80007c44, 0x80007c44, 0x80007c44, 0x80007c44, 0x80007c44, 0x80007c44, 0x80007c44, 0x80007c44, 0x80007c44, 0x80007c44, 0x80007c44, 0x80007c44, 0x80007c44, 0x80007c44} (#8)
                 505: cluster0-socket0-core0-issue0-dispatch: wid=0, sid=0, PC=0x80000394, ex=ALU, op=LUI, tmask=11111111111111111111111111111111, wb=1, rd=2, rs1_data={0x0, 0x0, 0x0, 0x0, 0x0, 0x0, 0x0, 0x0, 0x0, 0x0, 0x0, 0x0, 0x0, 0x0, 0x0, 0x0, 0x0, 0x0, 0x0, 0x0, 0x0, 0x0, 0x0, 0x0, 0x0, 0x0, 0x0, 0x0, 0x0, 0x0, 0x0, 0x0}, rs2_data={0x0, 0x0, 0x0, 0x0, 0x0, 0x0, 0x0, 0x0, 0x0, 0x0, 0x0, 0x0, 0x0, 0x0, 0x0, 0x0, 0x0, 0x0, 0x0, 0x0, 0x0, 0x0, 0x0, 0x0, 0x0, 0x0, 0x0, 0x0, 0x0, 0x0, 0x0, 0x0}, rs3_data={0x0, 0x0, 0x0, 0x0, 0x0, 0x0, 0x0, 0x0, 0x0, 0x0, 0x0, 0x0, 0x0, 0x0, 0x0, 0x0, 0x0, 0x0, 0x0, 0x0, 0x0, 0x0, 0x0, 0x0, 0x0, 0x0, 0x0, 0x0, 0x0, 0x0, 0x0, 0x0}, use_PC=0, use_imm=1, imm=0xffff0000, sop=1, eop=1 (#9)
                 505: cluster0-socket0-core0-fetch rsp: wid=0, PC=0x80000398, tmask=11111111111111111111111111111111, instr=0xf14022f3 (#10)
                 507: cluster0-socket0-core0-schedule: wid=0, PC=0x8000039c, tmask=11111111111111111111111111111111 (#11)
                 507: cluster0-socket0-core0-issue0-ibuffer: wid=0, PC=0x80000398, ex=SFU, op=CSRRS, tmask=11111111111111111111111111111111, wb=1, used_rs=001, rd=5, rs1=0, rs2=37, rs3=23, addr=0xf14, use_imm=0, imm=0x13 (#10)
                 509: cluster0-socket0-core0-fetch req: wid=0, PC=0x8000039c, tmask=11111111111111111111111111111111 (#11)
                 511: cluster0-socket0-core0-commit: wid=0, sid=0, PC=0x80000394, ex=ALU, tmask=11111111111111111111111111111111, wb=1, rd=2, sop=1, eop=1, data={0xffff0000, 0xffff0000, 0xffff0000, 0xffff0000, 0xffff0000, 0xffff0000, 0xffff0000, 0xffff0000, 0xffff0000, 0xffff0000, 0xffff0000, 0xffff0000, 0xffff0000, 0xffff0000, 0xffff0000, 0xffff0000, 0xffff0000, 0xffff0000, 0xffff0000, 0xffff0000, 0xffff0000, 0xffff0000, 0xffff0000, 0xffff0000, 0xffff0000, 0xffff0000, 0xffff0000, 0xffff0000, 0xffff0000, 0xffff0000, 0xffff0000, 0xffff0000} (#9)
                 511: [VX_scoreboard] Issuing u-op. ISSUE_ID=0, sel_wis=0, ex_type=2, op_type=0x7, uuid=#10, PC=0x80000398
                 517: cluster0-socket0-core0-issue0-dispatch: wid=0, sid=0, PC=0x80000398, ex=SFU, op=CSRRS, tmask=11111111111111111111111111111111, wb=1, rd=5, rs1_data={0x0, 0x0, 0x0, 0x0, 0x0, 0x0, 0x0, 0x0, 0x0, 0x0, 0x0, 0x0, 0x0, 0x0, 0x0, 0x0, 0x0, 0x0, 0x0, 0x0, 0x0, 0x0, 0x0, 0x0, 0x0, 0x0, 0x0, 0x0, 0x0, 0x0, 0x0, 0x0}, rs2_data={0x0, 0x0, 0x0, 0x0, 0x0, 0x0, 0x0, 0x0, 0x0, 0x0, 0x0, 0x0, 0x0, 0x0, 0x0, 0x0, 0x0, 0x0, 0x0, 0x0, 0x0, 0x0, 0x0, 0x0, 0x0, 0x0, 0x0, 0x0, 0x0, 0x0, 0x0, 0x0}, rs3_data={0x0, 0x0, 0x0, 0x0, 0x0, 0x0, 0x0, 0x0, 0x0, 0x0, 0x0, 0x0, 0x0, 0x0, 0x0, 0x0, 0x0, 0x0, 0x0, 0x0, 0x0, 0x0, 0x0, 0x0, 0x0, 0x0, 0x0, 0x0, 0x0, 0x0, 0x0, 0x0}, addr=0xf14, use_imm=0, imm=0x13, sop=1, eop=1 (#10)
                 517: cluster0-socket0-core0-fetch rsp: wid=0, PC=0x8000039c, tmask=11111111111111111111111111111111, instr=0xd29313 (#11)
                 519: cluster0-socket0-core0-schedule: wid=0, PC=0x800003a0, tmask=11111111111111111111111111111111 (#12)
                 519: cluster0-socket0-core0-issue0-ibuffer: wid=0, PC=0x8000039c, ex=ALU, op=SLLI, tmask=11111111111111111111111111111111, wb=1, used_rs=001, rd=6, rs1=5, rs2=37, rs3=23, use_PC=0, use_imm=1, imm=0xd (#11)
                 521: cluster0-socket0-core0-fetch req: wid=0, PC=0x800003a0, tmask=11111111111111111111111111111111 (#12)
                 527: cluster0-socket0-core0-commit: wid=0, sid=0, PC=0x80000398, ex=SFU, tmask=11111111111111111111111111111111, wb=1, rd=5, sop=1, eop=1, data={0x1f, 0x1e, 0x1d, 0x1c, 0x1b, 0x1a, 0x19, 0x18, 0x17, 0x16, 0x15, 0x14, 0x13, 0x12, 0x11, 0x10, 0xf, 0xe, 0xd, 0xc, 0xb, 0xa, 0x9, 0x8, 0x7, 0x6, 0x5, 0x4, 0x3, 0x2, 0x1, 0x0} (#10)
                 529: cluster0-socket0-core0-fetch rsp: wid=0, PC=0x800003a0, tmask=11111111111111111111111111111111, instr=0x40610133 (#12)
                 531: cluster0-socket0-core0-schedule: wid=0, PC=0x800003a4, tmask=11111111111111111111111111111111 (#13)
                 531: cluster0-socket0-core0-issue0-ibuffer: wid=0, PC=0x800003a0, ex=ALU, op=SUB, tmask=11111111111111111111111111111111, wb=1, used_rs=011, rd=2, rs1=2, rs2=6, rs3=23, use_PC=0, use_imm=0, imm=0xd1fe5573 (#12)
                 533: [VX_scoreboard] Issuing u-op. ISSUE_ID=0, sel_wis=0, ex_type=0, op_type=0xf, uuid=#11, PC=0x8000039c
                 533: cluster0-socket0-core0-fetch req: wid=0, PC=0x800003a4, tmask=11111111111111111111111111111111 (#13)
                 539: cluster0-socket0-core0-issue0-dispatch: wid=0, sid=0, PC=0x8000039c, ex=ALU, op=SLLI, tmask=11111111111111111111111111111111, wb=1, rd=6, rs1_data={0x1f, 0x1e, 0x1d, 0x1c, 0x1b, 0x1a, 0x19, 0x18, 0x17, 0x16, 0x15, 0x14, 0x13, 0x12, 0x11, 0x10, 0xf, 0xe, 0xd, 0xc, 0xb, 0xa, 0x9, 0x8, 0x7, 0x6, 0x5, 0x4, 0x3, 0x2, 0x1, 0x0}, rs2_data={0x0, 0x0, 0x0, 0x0, 0x0, 0x0, 0x0, 0x0, 0x0, 0x0, 0x0, 0x0, 0x0, 0x0, 0x0, 0x0, 0x0, 0x0, 0x0, 0x0, 0x0, 0x0, 0x0, 0x0, 0x0, 0x0, 0x0, 0x0, 0x0, 0x0, 0x0, 0x0}, rs3_data={0x0, 0x0, 0x0, 0x0, 0x0, 0x0, 0x0, 0x0, 0x0, 0x0, 0x0, 0x0, 0x0, 0x0, 0x0, 0x0, 0x0, 0x0, 0x0, 0x0, 0x0, 0x0, 0x0, 0x0, 0x0, 0x0, 0x0, 0x0, 0x0, 0x0, 0x0, 0x0}, use_PC=0, use_imm=1, imm=0xd, sop=1, eop=1 (#11)
                 541: cluster0-socket0-core0-fetch rsp: wid=0, PC=0x800003a4, tmask=11111111111111111111111111111111, instr=0x1c00313 (#13)
                 543: cluster0-socket0-core0-schedule: wid=0, PC=0x800003a8, tmask=11111111111111111111111111111111 (#14)
                 545: cluster0-socket0-core0-commit: wid=0, sid=0, PC=0x8000039c, ex=ALU, tmask=11111111111111111111111111111111, wb=1, rd=6, sop=1, eop=1, data={0x3e000, 0x3c000, 0x3a000, 0x38000, 0x36000, 0x34000, 0x32000, 0x30000, 0x2e000, 0x2c000, 0x2a000, 0x28000, 0x26000, 0x24000, 0x22000, 0x20000, 0x1e000, 0x1c000, 0x1a000, 0x18000, 0x16000, 0x14000, 0x12000, 0x10000, 0xe000, 0xc000, 0xa000, 0x8000, 0x6000, 0x4000, 0x2000, 0x0} (#11)
                 545: cluster0-socket0-core0-fetch req: wid=0, PC=0x800003a8, tmask=11111111111111111111111111111111 (#14)
                 549: cluster0-socket0-core0-issue0-ibuffer: wid=0, PC=0x800003a4, ex=ALU, op=ADDI, tmask=11111111111111111111111111111111, wb=1, used_rs=001, rd=6, rs1=0, rs2=37, rs3=23, use_PC=0, use_imm=1, imm=0x1c (#13)
                 553: [VX_scoreboard] Issuing u-op. ISSUE_ID=0, sel_wis=0, ex_type=0, op_type=0x7, uuid=#12, PC=0x800003a0
                 553: cluster0-socket0-core0-fetch rsp: wid=0, PC=0x800003a8, tmask=11111111111111111111111111111111, instr=0x26282b3 (#14)
                 555: cluster0-socket0-core0-schedule: wid=0, PC=0x800003ac, tmask=11111111111111111111111111111111 (#15)
                 555: cluster0-socket0-core0-issue0-ibuffer: wid=0, PC=0x800003a8, ex=ALU, op=MUL, tmask=11111111111111111111111111111111, wb=1, used_rs=011, rd=5, rs1=5, rs2=6, rs3=23, use_PC=0, use_imm=0, imm=0xd1fe5573 (#14)
                 555: [VX_scoreboard] Issuing u-op. ISSUE_ID=0, sel_wis=0, ex_type=0, op_type=0x0, uuid=#13, PC=0x800003a4
                 557: cluster0-socket0-core0-fetch req: wid=0, PC=0x800003ac, tmask=11111111111111111111111111111111 (#15)
                 559: cluster0-socket0-core0-issue0-dispatch: wid=0, sid=0, PC=0x800003a0, ex=ALU, op=SUB, tmask=11111111111111111111111111111111, wb=1, rd=2, rs1_data={0xffff0000, 0xffff0000, 0xffff0000, 0xffff0000, 0xffff0000, 0xffff0000, 0xffff0000, 0xffff0000, 0xffff0000, 0xffff0000, 0xffff0000, 0xffff0000, 0xffff0000, 0xffff0000, 0xffff0000, 0xffff0000, 0xffff0000, 0xffff0000, 0xffff0000, 0xffff0000, 0xffff0000, 0xffff0000, 0xffff0000, 0xffff0000, 0xffff0000, 0xffff0000, 0xffff0000, 0xffff0000, 0xffff0000, 0xffff0000, 0xffff0000, 0xffff0000}, rs2_data={0x3e000, 0x3c000, 0x3a000, 0x38000, 0x36000, 0x34000, 0x32000, 0x30000, 0x2e000, 0x2c000, 0x2a000, 0x28000, 0x26000, 0x24000, 0x22000, 0x20000, 0x1e000, 0x1c000, 0x1a000, 0x18000, 0x16000, 0x14000, 0x12000, 0x10000, 0xe000, 0xc000, 0xa000, 0x8000, 0x6000, 0x4000, 0x2000, 0x0}, rs3_data={0x0, 0x0, 0x0, 0x0, 0x0, 0x0, 0x0, 0x0, 0x0, 0x0, 0x0, 0x0, 0x0, 0x0, 0x0, 0x0, 0x0, 0x0, 0x0, 0x0, 0x0, 0x0, 0x0, 0x0, 0x0, 0x0, 0x0, 0x0, 0x0, 0x0, 0x0, 0x0}, use_PC=0, use_imm=0, imm=0xd1fe5573, sop=1, eop=1 (#12)
                 561: cluster0-socket0-core0-issue0-dispatch: wid=0, sid=0, PC=0x800003a4, ex=ALU, op=ADDI, tmask=11111111111111111111111111111111, wb=1, rd=6, rs1_data={0x0, 0x0, 0x0, 0x0, 0x0, 0x0, 0x0, 0x0, 0x0, 0x0, 0x0, 0x0, 0x0, 0x0, 0x0, 0x0, 0x0, 0x0, 0x0, 0x0, 0x0, 0x0, 0x0, 0x0, 0x0, 0x0, 0x0, 0x0, 0x0, 0x0, 0x0, 0x0}, rs2_data={0x0, 0x0, 0x0, 0x0, 0x0, 0x0, 0x0, 0x0, 0x0, 0x0, 0x0, 0x0, 0x0, 0x0, 0x0, 0x0, 0x0, 0x0, 0x0, 0x0, 0x0, 0x0, 0x0, 0x0, 0x0, 0x0, 0x0, 0x0, 0x0, 0x0, 0x0, 0x0}, rs3_data={0x0, 0x0, 0x0, 0x0, 0x0, 0x0, 0x0, 0x0, 0x0, 0x0, 0x0, 0x0, 0x0, 0x0, 0x0, 0x0, 0x0, 0x0, 0x0, 0x0, 0x0, 0x0, 0x0, 0x0, 0x0, 0x0, 0x0, 0x0, 0x0, 0x0, 0x0, 0x0}, use_PC=0, use_imm=1, imm=0x1c, sop=1, eop=1 (#13)
                 565: cluster0-socket0-core0-commit: wid=0, sid=0, PC=0x800003a0, ex=ALU, tmask=11111111111111111111111111111111, wb=1, rd=2, sop=1, eop=1, data={0xfffb2000, 0xfffb4000, 0xfffb6000, 0xfffb8000, 0xfffba000, 0xfffbc000, 0xfffbe000, 0xfffc0000, 0xfffc2000, 0xfffc4000, 0xfffc6000, 0xfffc8000, 0xfffca000, 0xfffcc000, 0xfffce000, 0xfffd0000, 0xfffd2000, 0xfffd4000, 0xfffd6000, 0xfffd8000, 0xfffda000, 0xfffdc000, 0xfffde000, 0xfffe0000, 0xfffe2000, 0xfffe4000, 0xfffe6000, 0xfffe8000, 0xfffea000, 0xfffec000, 0xfffee000, 0xffff0000} (#12)
                 565: cluster0-socket0-core0-fetch rsp: wid=0, PC=0x800003ac, tmask=11111111111111111111111111111111, instr=0x7217 (#15)
                 567: cluster0-socket0-core0-schedule: wid=0, PC=0x800003b0, tmask=11111111111111111111111111111111 (#16)
                 567: cluster0-socket0-core0-commit: wid=0, sid=0, PC=0x800003a4, ex=ALU, tmask=11111111111111111111111111111111, wb=1, rd=6, sop=1, eop=1, data={0x1c, 0x1c, 0x1c, 0x1c, 0x1c, 0x1c, 0x1c, 0x1c, 0x1c, 0x1c, 0x1c, 0x1c, 0x1c, 0x1c, 0x1c, 0x1c, 0x1c, 0x1c, 0x1c, 0x1c, 0x1c, 0x1c, 0x1c, 0x1c, 0x1c, 0x1c, 0x1c, 0x1c, 0x1c, 0x1c, 0x1c, 0x1c} (#13)
                 569: cluster0-socket0-core0-fetch req: wid=0, PC=0x800003b0, tmask=11111111111111111111111111111111 (#16)
                 571: cluster0-socket0-core0-issue0-ibuffer: wid=0, PC=0x800003ac, ex=ALU, op=AUIPC, tmask=11111111111111111111111111111111, wb=1, used_rs=000, rd=4, rs1=3, rs2=37, rs3=23, use_PC=1, use_imm=1, imm=0x7000 (#15)
                 573: [VX_scoreboard] Issuing u-op. ISSUE_ID=0, sel_wis=0, ex_type=0, op_type=0x0, uuid=#14, PC=0x800003a8
                 575: [VX_scoreboard] Issuing u-op. ISSUE_ID=0, sel_wis=0, ex_type=0, op_type=0x3, uuid=#15, PC=0x800003ac
                 577: cluster0-socket0-core0-fetch rsp: wid=0, PC=0x800003b0, tmask=11111111111111111111111111111111, instr=0x16820213 (#16)
                 579: cluster0-socket0-core0-schedule: wid=0, PC=0x800003b4, tmask=11111111111111111111111111111111 (#17)
                 579: cluster0-socket0-core0-issue0-ibuffer: wid=0, PC=0x800003b0, ex=ALU, op=ADDI, tmask=11111111111111111111111111111111, wb=1, used_rs=001, rd=4, rs1=4, rs2=37, rs3=23, use_PC=0, use_imm=1, imm=0x168 (#16)
                 579: cluster0-socket0-core0-issue0-dispatch: wid=0, sid=0, PC=0x800003a8, ex=ALU, op=MUL, tmask=11111111111111111111111111111111, wb=1, rd=5, rs1_data={0x1f, 0x1e, 0x1d, 0x1c, 0x1b, 0x1a, 0x19, 0x18, 0x17, 0x16, 0x15, 0x14, 0x13, 0x12, 0x11, 0x10, 0xf, 0xe, 0xd, 0xc, 0xb, 0xa, 0x9, 0x8, 0x7, 0x6, 0x5, 0x4, 0x3, 0x2, 0x1, 0x0}, rs2_data={0x1c, 0x1c, 0x1c, 0x1c, 0x1c, 0x1c, 0x1c, 0x1c, 0x1c, 0x1c, 0x1c, 0x1c, 0x1c, 0x1c, 0x1c, 0x1c, 0x1c, 0x1c, 0x1c, 0x1c, 0x1c, 0x1c, 0x1c, 0x1c, 0x1c, 0x1c, 0x1c, 0x1c, 0x1c, 0x1c, 0x1c, 0x1c}, rs3_data={0x0, 0x0, 0x0, 0x0, 0x0, 0x0, 0x0, 0x0, 0x0, 0x0, 0x0, 0x0, 0x0, 0x0, 0x0, 0x0, 0x0, 0x0, 0x0, 0x0, 0x0, 0x0, 0x0, 0x0, 0x0, 0x0, 0x0, 0x0, 0x0, 0x0, 0x0, 0x0}, use_PC=0, use_imm=0, imm=0xd1fe5573, sop=1, eop=1 (#14)
                 581: cluster0-socket0-core0-issue0-dispatch: wid=0, sid=0, PC=0x800003ac, ex=ALU, op=AUIPC, tmask=11111111111111111111111111111111, wb=1, rd=4, rs1_data={0x0, 0x0, 0x0, 0x0, 0x0, 0x0, 0x0, 0x0, 0x0, 0x0, 0x0, 0x0, 0x0, 0x0, 0x0, 0x0, 0x0, 0x0, 0x0, 0x0, 0x0, 0x0, 0x0, 0x0, 0x0, 0x0, 0x0, 0x0, 0x0, 0x0, 0x0, 0x0}, rs2_data={0x0, 0x0, 0x0, 0x0, 0x0, 0x0, 0x0, 0x0, 0x0, 0x0, 0x0, 0x0, 0x0, 0x0, 0x0, 0x0, 0x0, 0x0, 0x0, 0x0, 0x0, 0x0, 0x0, 0x0, 0x0, 0x0, 0x0, 0x0, 0x0, 0x0, 0x0, 0x0}, rs3_data={0x0, 0x0, 0x0, 0x0, 0x0, 0x0, 0x0, 0x0, 0x0, 0x0, 0x0, 0x0, 0x0, 0x0, 0x0, 0x0, 0x0, 0x0, 0x0, 0x0, 0x0, 0x0, 0x0, 0x0, 0x0, 0x0, 0x0, 0x0, 0x0, 0x0, 0x0, 0x0}, use_PC=1, use_imm=1, imm=0x7000, sop=1, eop=1 (#15)
                 581: cluster0-socket0-core0-fetch req: wid=0, PC=0x800003b4, tmask=11111111111111111111111111111111 (#17)
                 587: cluster0-socket0-core0-commit: wid=0, sid=0, PC=0x800003ac, ex=ALU, tmask=11111111111111111111111111111111, wb=1, rd=4, sop=1, eop=1, data={0x800073ac, 0x800073ac, 0x800073ac, 0x800073ac, 0x800073ac, 0x800073ac, 0x800073ac, 0x800073ac, 0x800073ac, 0x800073ac, 0x800073ac, 0x800073ac, 0x800073ac, 0x800073ac, 0x800073ac, 0x800073ac, 0x800073ac, 0x800073ac, 0x800073ac, 0x800073ac, 0x800073ac, 0x800073ac, 0x800073ac, 0x800073ac, 0x800073ac, 0x800073ac, 0x800073ac, 0x800073ac, 0x800073ac, 0x800073ac, 0x800073ac, 0x800073ac} (#15)
                 589: cluster0-socket0-core0-fetch rsp: wid=0, PC=0x800003b4, tmask=11111111111111111111111111111111, instr=0x520233 (#17)
                 591: cluster0-socket0-core0-schedule: wid=0, PC=0x800003b8, tmask=11111111111111111111111111111111 (#18)
                 591: cluster0-socket0-core0-commit: wid=0, sid=0, PC=0x800003a8, ex=ALU, tmask=11111111111111111111111111111111, wb=1, rd=5, sop=1, eop=1, data={0x364, 0x348, 0x32c, 0x310, 0x2f4, 0x2d8, 0x2bc, 0x2a0, 0x284, 0x268, 0x24c, 0x230, 0x214, 0x1f8, 0x1dc, 0x1c0, 0x1a4, 0x188, 0x16c, 0x150, 0x134, 0x118, 0xfc, 0xe0, 0xc4, 0xa8, 0x8c, 0x70, 0x54, 0x38, 0x1c, 0x0} (#14)
                 591: cluster0-socket0-core0-issue0-ibuffer: wid=0, PC=0x800003b4, ex=ALU, op=ADD, tmask=11111111111111111111111111111111, wb=1, used_rs=011, rd=4, rs1=4, rs2=5, rs3=23, use_PC=0, use_imm=0, imm=0xd1fe5573 (#17)
                 593: [VX_scoreboard] Issuing u-op. ISSUE_ID=0, sel_wis=0, ex_type=0, op_type=0x0, uuid=#16, PC=0x800003b0
                 593: cluster0-socket0-core0-fetch req: wid=0, PC=0x800003b8, tmask=11111111111111111111111111111111 (#18)
                 599: cluster0-socket0-core0-issue0-dispatch: wid=0, sid=0, PC=0x800003b0, ex=ALU, op=ADDI, tmask=11111111111111111111111111111111, wb=1, rd=4, rs1_data={0x800073ac, 0x800073ac, 0x800073ac, 0x800073ac, 0x800073ac, 0x800073ac, 0x800073ac, 0x800073ac, 0x800073ac, 0x800073ac, 0x800073ac, 0x800073ac, 0x800073ac, 0x800073ac, 0x800073ac, 0x800073ac, 0x800073ac, 0x800073ac, 0x800073ac, 0x800073ac, 0x800073ac, 0x800073ac, 0x800073ac, 0x800073ac, 0x800073ac, 0x800073ac, 0x800073ac, 0x800073ac, 0x800073ac, 0x800073ac, 0x800073ac, 0x800073ac}, rs2_data={0x0, 0x0, 0x0, 0x0, 0x0, 0x0, 0x0, 0x0, 0x0, 0x0, 0x0, 0x0, 0x0, 0x0, 0x0, 0x0, 0x0, 0x0, 0x0, 0x0, 0x0, 0x0, 0x0, 0x0, 0x0, 0x0, 0x0, 0x0, 0x0, 0x0, 0x0, 0x0}, rs3_data={0x0, 0x0, 0x0, 0x0, 0x0, 0x0, 0x0, 0x0, 0x0, 0x0, 0x0, 0x0, 0x0, 0x0, 0x0, 0x0, 0x0, 0x0, 0x0, 0x0, 0x0, 0x0, 0x0, 0x0, 0x0, 0x0, 0x0, 0x0, 0x0, 0x0, 0x0, 0x0}, use_PC=0, use_imm=1, imm=0x168, sop=1, eop=1 (#16)
                 601: cluster0-socket0-core0-fetch rsp: wid=0, PC=0x800003b8, tmask=11111111111111111111111111111111, instr=0x8067 (#18)
                 605: cluster0-socket0-core0-commit: wid=0, sid=0, PC=0x800003b0, ex=ALU, tmask=11111111111111111111111111111111, wb=1, rd=4, sop=1, eop=1, data={0x80007514, 0x80007514, 0x80007514, 0x80007514, 0x80007514, 0x80007514, 0x80007514, 0x80007514, 0x80007514, 0x80007514, 0x80007514, 0x80007514, 0x80007514, 0x80007514, 0x80007514, 0x80007514, 0x80007514, 0x80007514, 0x80007514, 0x80007514, 0x80007514, 0x80007514, 0x80007514, 0x80007514, 0x80007514, 0x80007514, 0x80007514, 0x80007514, 0x80007514, 0x80007514, 0x80007514, 0x80007514} (#16)
                 609: cluster0-socket0-core0-issue0-ibuffer: wid=0, PC=0x800003b8, ex=ALU, op=JALR, tmask=11111111111111111111111111111111, wb=0, used_rs=001, rd=0, rs1=1, rs2=37, rs3=23, use_PC=0, use_imm=1, imm=0x0 (#18)
                 611: [VX_scoreboard] Issuing u-op. ISSUE_ID=0, sel_wis=0, ex_type=0, op_type=0x0, uuid=#17, PC=0x800003b4
                 613: [VX_scoreboard] Issuing u-op. ISSUE_ID=0, sel_wis=0, ex_type=0, op_type=0x9, uuid=#18, PC=0x800003b8
                 617: cluster0-socket0-core0-issue0-dispatch: wid=0, sid=0, PC=0x800003b4, ex=ALU, op=ADD, tmask=11111111111111111111111111111111, wb=1, rd=4, rs1_data={0x80007514, 0x80007514, 0x80007514, 0x80007514, 0x80007514, 0x80007514, 0x80007514, 0x80007514, 0x80007514, 0x80007514, 0x80007514, 0x80007514, 0x80007514, 0x80007514, 0x80007514, 0x80007514, 0x80007514, 0x80007514, 0x80007514, 0x80007514, 0x80007514, 0x80007514, 0x80007514, 0x80007514, 0x80007514, 0x80007514, 0x80007514, 0x80007514, 0x80007514, 0x80007514, 0x80007514, 0x80007514}, rs2_data={0x364, 0x348, 0x32c, 0x310, 0x2f4, 0x2d8, 0x2bc, 0x2a0, 0x284, 0x268, 0x24c, 0x230, 0x214, 0x1f8, 0x1dc, 0x1c0, 0x1a4, 0x188, 0x16c, 0x150, 0x134, 0x118, 0xfc, 0xe0, 0xc4, 0xa8, 0x8c, 0x70, 0x54, 0x38, 0x1c, 0x0}, rs3_data={0x0, 0x0, 0x0, 0x0, 0x0, 0x0, 0x0, 0x0, 0x0, 0x0, 0x0, 0x0, 0x0, 0x0, 0x0, 0x0, 0x0, 0x0, 0x0, 0x0, 0x0, 0x0, 0x0, 0x0, 0x0, 0x0, 0x0, 0x0, 0x0, 0x0, 0x0, 0x0}, use_PC=0, use_imm=0, imm=0xd1fe5573, sop=1, eop=1 (#17)
                 619: cluster0-socket0-core0-issue0-dispatch: wid=0, sid=0, PC=0x800003b8, ex=ALU, op=JALR, tmask=11111111111111111111111111111111, wb=0, rd=0, rs1_data={0x8000001c, 0x8000001c, 0x8000001c, 0x8000001c, 0x8000001c, 0x8000001c, 0x8000001c, 0x8000001c, 0x8000001c, 0x8000001c, 0x8000001c, 0x8000001c, 0x8000001c, 0x8000001c, 0x8000001c, 0x8000001c, 0x8000001c, 0x8000001c, 0x8000001c, 0x8000001c, 0x8000001c, 0x8000001c, 0x8000001c, 0x8000001c, 0x8000001c, 0x8000001c, 0x8000001c, 0x8000001c, 0x8000001c, 0x8000001c, 0x8000001c, 0x8000001c}, rs2_data={0x0, 0x0, 0x0, 0x0, 0x0, 0x0, 0x0, 0x0, 0x0, 0x0, 0x0, 0x0, 0x0, 0x0, 0x0, 0x0, 0x0, 0x0, 0x0, 0x0, 0x0, 0x0, 0x0, 0x0, 0x0, 0x0, 0x0, 0x0, 0x0, 0x0, 0x0, 0x0}, rs3_data={0x0, 0x0, 0x0, 0x0, 0x0, 0x0, 0x0, 0x0, 0x0, 0x0, 0x0, 0x0, 0x0, 0x0, 0x0, 0x0, 0x0, 0x0, 0x0, 0x0, 0x0, 0x0, 0x0, 0x0, 0x0, 0x0, 0x0, 0x0, 0x0, 0x0, 0x0, 0x0}, use_PC=0, use_imm=1, imm=0x0, sop=1, eop=1 (#18)
                 623: cluster0-socket0-core0-commit: wid=0, sid=0, PC=0x800003b4, ex=ALU, tmask=11111111111111111111111111111111, wb=1, rd=4, sop=1, eop=1, data={0x80007878, 0x8000785c, 0x80007840, 0x80007824, 0x80007808, 0x800077ec, 0x800077d0, 0x800077b4, 0x80007798, 0x8000777c, 0x80007760, 0x80007744, 0x80007728, 0x8000770c, 0x800076f0, 0x800076d4, 0x800076b8, 0x8000769c, 0x80007680, 0x80007664, 0x80007648, 0x8000762c, 0x80007610, 0x800075f4, 0x800075d8, 0x800075bc, 0x800075a0, 0x80007584, 0x80007568, 0x8000754c, 0x80007530, 0x80007514} (#17)
                 625: cluster0-socket0-core0-commit: wid=0, sid=0, PC=0x800003b8, ex=ALU, tmask=11111111111111111111111111111111, wb=0, rd=0, sop=1, eop=1, data={0x800003bc, 0x800003bc, 0x800003bc, 0x800003bc, 0x800003bc, 0x800003bc, 0x800003bc, 0x800003bc, 0x800003bc, 0x800003bc, 0x800003bc, 0x800003bc, 0x800003bc, 0x800003bc, 0x800003bc, 0x800003bc, 0x800003bc, 0x800003bc, 0x800003bc, 0x800003bc, 0x800003bc, 0x800003bc, 0x800003bc, 0x800003bc, 0x800003bc, 0x800003bc, 0x800003bc, 0x800003bc, 0x800003bc, 0x800003bc, 0x800003bc, 0x800003bc} (#18)
                 627: cluster0-socket0-core0-schedule: wid=0, PC=0x8000001c, tmask=11111111111111111111111111111111 (#19)
                 629: cluster0-socket0-core0-fetch req: wid=0, PC=0x8000001c, tmask=11111111111111111111111111111111 (#19)
                 637: cluster0-socket0-core0-fetch rsp: wid=0, PC=0x8000001c, tmask=11111111111111111111111111111111, instr=0x100293 (#19)
                 639: cluster0-socket0-core0-schedule: wid=0, PC=0x80000020, tmask=11111111111111111111111111111111 (#20)
                 639: cluster0-socket0-core0-issue0-ibuffer: wid=0, PC=0x8000001c, ex=ALU, op=ADDI, tmask=11111111111111111111111111111111, wb=1, used_rs=001, rd=5, rs1=0, rs2=37, rs3=23, use_PC=0, use_imm=1, imm=0x1 (#19)
                 641: cluster0-socket0-core0-fetch req: wid=0, PC=0x80000020, tmask=11111111111111111111111111111111 (#20)
                 643: [VX_scoreboard] Issuing u-op. ISSUE_ID=0, sel_wis=0, ex_type=0, op_type=0x0, uuid=#19, PC=0x8000001c
                 649: cluster0-socket0-core0-issue0-dispatch: wid=0, sid=0, PC=0x8000001c, ex=ALU, op=ADDI, tmask=11111111111111111111111111111111, wb=1, rd=5, rs1_data={0x0, 0x0, 0x0, 0x0, 0x0, 0x0, 0x0, 0x0, 0x0, 0x0, 0x0, 0x0, 0x0, 0x0, 0x0, 0x0, 0x0, 0x0, 0x0, 0x0, 0x0, 0x0, 0x0, 0x0, 0x0, 0x0, 0x0, 0x0, 0x0, 0x0, 0x0, 0x0}, rs2_data={0x0, 0x0, 0x0, 0x0, 0x0, 0x0, 0x0, 0x0, 0x0, 0x0, 0x0, 0x0, 0x0, 0x0, 0x0, 0x0, 0x0, 0x0, 0x0, 0x0, 0x0, 0x0, 0x0, 0x0, 0x0, 0x0, 0x0, 0x0, 0x0, 0x0, 0x0, 0x0}, rs3_data={0x0, 0x0, 0x0, 0x0, 0x0, 0x0, 0x0, 0x0, 0x0, 0x0, 0x0, 0x0, 0x0, 0x0, 0x0, 0x0, 0x0, 0x0, 0x0, 0x0, 0x0, 0x0, 0x0, 0x0, 0x0, 0x0, 0x0, 0x0, 0x0, 0x0, 0x0, 0x0}, use_PC=0, use_imm=1, imm=0x1, sop=1, eop=1 (#19)
                 649: cluster0-socket0-core0-fetch rsp: wid=0, PC=0x80000020, tmask=11111111111111111111111111111111, instr=0x2800b (#20)
                 651: cluster0-socket0-core0-issue0-ibuffer: wid=0, PC=0x80000020, ex=SFU, op=TMC, tmask=11111111111111111111111111111111, wb=0, used_rs=001, rd=1, rs1=5, rs2=37, rs3=23,  (#20)
                 655: cluster0-socket0-core0-commit: wid=0, sid=0, PC=0x8000001c, ex=ALU, tmask=11111111111111111111111111111111, wb=1, rd=5, sop=1, eop=1, data={0x1, 0x1, 0x1, 0x1, 0x1, 0x1, 0x1, 0x1, 0x1, 0x1, 0x1, 0x1, 0x1, 0x1, 0x1, 0x1, 0x1, 0x1, 0x1, 0x1, 0x1, 0x1, 0x1, 0x1, 0x1, 0x1, 0x1, 0x1, 0x1, 0x1, 0x1, 0x1} (#19)
                 661: [VX_scoreboard] Issuing u-op. ISSUE_ID=0, sel_wis=0, ex_type=2, op_type=0x0, uuid=#20, PC=0x80000020
                 667: cluster0-socket0-core0-issue0-dispatch: wid=0, sid=0, PC=0x80000020, ex=SFU, op=TMC, tmask=11111111111111111111111111111111, wb=0, rd=1, rs1_data={0x1, 0x1, 0x1, 0x1, 0x1, 0x1, 0x1, 0x1, 0x1, 0x1, 0x1, 0x1, 0x1, 0x1, 0x1, 0x1, 0x1, 0x1, 0x1, 0x1, 0x1, 0x1, 0x1, 0x1, 0x1, 0x1, 0x1, 0x1, 0x1, 0x1, 0x1, 0x1}, rs2_data={0x0, 0x0, 0x0, 0x0, 0x0, 0x0, 0x0, 0x0, 0x0, 0x0, 0x0, 0x0, 0x0, 0x0, 0x0, 0x0, 0x0, 0x0, 0x0, 0x0, 0x0, 0x0, 0x0, 0x0, 0x0, 0x0, 0x0, 0x0, 0x0, 0x0, 0x0, 0x0}, rs3_data={0x0, 0x0, 0x0, 0x0, 0x0, 0x0, 0x0, 0x0, 0x0, 0x0, 0x0, 0x0, 0x0, 0x0, 0x0, 0x0, 0x0, 0x0, 0x0, 0x0, 0x0, 0x0, 0x0, 0x0, 0x0, 0x0, 0x0, 0x0, 0x0, 0x0, 0x0, 0x0}, , sop=1, eop=1 (#20)
                 675: cluster0-socket0-core0-schedule: wid=0, PC=0x80000024, tmask=00000000000000000000000000000001 (#21)
                 677: cluster0-socket0-core0-commit: wid=0, sid=0, PC=0x80000020, ex=SFU, tmask=11111111111111111111111111111111, wb=0, rd=1, sop=1, eop=1, data={0x0, 0x0, 0x0, 0x0, 0x0, 0x0, 0x0, 0x0, 0x0, 0x0, 0x0, 0x0, 0x0, 0x0, 0x0, 0x0, 0x0, 0x0, 0x0, 0x0, 0x0, 0x0, 0x0, 0x0, 0x0, 0x0, 0x0, 0x0, 0x0, 0x0, 0x0, 0x0} (#20)
                 677: cluster0-socket0-core0-fetch req: wid=0, PC=0x80000024, tmask=00000000000000000000000000000001 (#21)
                 685: cluster0-socket0-core0-fetch rsp: wid=0, PC=0x80000024, tmask=00000000000000000000000000000001, instr=0xfc1022f3 (#21)
                 687: cluster0-socket0-core0-schedule: wid=0, PC=0x80000028, tmask=00000000000000000000000000000001 (#22)
                 687: cluster0-socket0-core0-issue0-ibuffer: wid=0, PC=0x80000024, ex=SFU, op=CSRRS, tmask=00000000000000000000000000000001, wb=1, used_rs=001, rd=5, rs1=0, rs2=37, rs3=23, addr=0xfc1, use_imm=0, imm=0x13 (#21)
                 689: cluster0-socket0-core0-fetch req: wid=0, PC=0x80000028, tmask=00000000000000000000000000000001 (#22)
                 691: [VX_scoreboard] Issuing u-op. ISSUE_ID=0, sel_wis=0, ex_type=2, op_type=0x7, uuid=#21, PC=0x80000024
                 697: cluster0-socket0-core0-issue0-dispatch: wid=0, sid=0, PC=0x80000024, ex=SFU, op=CSRRS, tmask=00000000000000000000000000000001, wb=1, rd=5, rs1_data={0x0, 0x0, 0x0, 0x0, 0x0, 0x0, 0x0, 0x0, 0x0, 0x0, 0x0, 0x0, 0x0, 0x0, 0x0, 0x0, 0x0, 0x0, 0x0, 0x0, 0x0, 0x0, 0x0, 0x0, 0x0, 0x0, 0x0, 0x0, 0x0, 0x0, 0x0, 0x0}, rs2_data={0x0, 0x0, 0x0, 0x0, 0x0, 0x0, 0x0, 0x0, 0x0, 0x0, 0x0, 0x0, 0x0, 0x0, 0x0, 0x0, 0x0, 0x0, 0x0, 0x0, 0x0, 0x0, 0x0, 0x0, 0x0, 0x0, 0x0, 0x0, 0x0, 0x0, 0x0, 0x0}, rs3_data={0x0, 0x0, 0x0, 0x0, 0x0, 0x0, 0x0, 0x0, 0x0, 0x0, 0x0, 0x0, 0x0, 0x0, 0x0, 0x0, 0x0, 0x0, 0x0, 0x0, 0x0, 0x0, 0x0, 0x0, 0x0, 0x0, 0x0, 0x0, 0x0, 0x0, 0x0, 0x0}, addr=0xfc1, use_imm=0, imm=0x13, sop=1, eop=1 (#21)
                 697: cluster0-socket0-core0-fetch rsp: wid=0, PC=0x80000028, tmask=00000000000000000000000000000001, instr=0x317 (#22)
                 699: cluster0-socket0-core0-schedule: wid=0, PC=0x8000002c, tmask=00000000000000000000000000000001 (#23)
                 699: cluster0-socket0-core0-issue0-ibuffer: wid=0, PC=0x80000028, ex=ALU, op=AUIPC, tmask=00000000000000000000000000000001, wb=1, used_rs=000, rd=6, rs1=3, rs2=37, rs3=23, use_PC=1, use_imm=1, imm=0x0 (#22)
                 701: cluster0-socket0-core0-fetch req: wid=0, PC=0x8000002c, tmask=00000000000000000000000000000001 (#23)
                 703: [VX_scoreboard] Issuing u-op. ISSUE_ID=0, sel_wis=0, ex_type=0, op_type=0x3, uuid=#22, PC=0x80000028
                 707: cluster0-socket0-core0-commit: wid=0, sid=0, PC=0x80000024, ex=SFU, tmask=00000000000000000000000000000001, wb=1, rd=5, sop=1, eop=1, data={0x1, 0x1, 0x1, 0x1, 0x1, 0x1, 0x1, 0x1, 0x1, 0x1, 0x1, 0x1, 0x1, 0x1, 0x1, 0x1, 0x1, 0x1, 0x1, 0x1, 0x1, 0x1, 0x1, 0x1, 0x1, 0x1, 0x1, 0x1, 0x1, 0x1, 0x1, 0x1} (#21)
                 709: cluster0-socket0-core0-issue0-dispatch: wid=0, sid=0, PC=0x80000028, ex=ALU, op=AUIPC, tmask=00000000000000000000000000000001, wb=1, rd=6, rs1_data={0x0, 0x0, 0x0, 0x0, 0x0, 0x0, 0x0, 0x0, 0x0, 0x0, 0x0, 0x0, 0x0, 0x0, 0x0, 0x0, 0x0, 0x0, 0x0, 0x0, 0x0, 0x0, 0x0, 0x0, 0x0, 0x0, 0x0, 0x0, 0x0, 0x0, 0x0, 0x0}, rs2_data={0x0, 0x0, 0x0, 0x0, 0x0, 0x0, 0x0, 0x0, 0x0, 0x0, 0x0, 0x0, 0x0, 0x0, 0x0, 0x0, 0x0, 0x0, 0x0, 0x0, 0x0, 0x0, 0x0, 0x0, 0x0, 0x0, 0x0, 0x0, 0x0, 0x0, 0x0, 0x0}, rs3_data={0x0, 0x0, 0x0, 0x0, 0x0, 0x0, 0x0, 0x0, 0x0, 0x0, 0x0, 0x0, 0x0, 0x0, 0x0, 0x0, 0x0, 0x0, 0x0, 0x0, 0x0, 0x0, 0x0, 0x0, 0x0, 0x0, 0x0, 0x0, 0x0, 0x0, 0x0, 0x0}, use_PC=1, use_imm=1, imm=0x0, sop=1, eop=1 (#22)
                 709: cluster0-socket0-core0-fetch rsp: wid=0, PC=0x8000002c, tmask=00000000000000000000000000000001, instr=0x3a830313 (#23)
                 711: cluster0-socket0-core0-schedule: wid=0, PC=0x80000030, tmask=00000000000000000000000000000001 (#24)
                 711: cluster0-socket0-core0-issue0-ibuffer: wid=0, PC=0x8000002c, ex=ALU, op=ADDI, tmask=00000000000000000000000000000001, wb=1, used_rs=001, rd=6, rs1=6, rs2=37, rs3=23, use_PC=0, use_imm=1, imm=0x3a8 (#23)
                 713: cluster0-socket0-core0-fetch req: wid=0, PC=0x80000030, tmask=00000000000000000000000000000001 (#24)
                 715: cluster0-socket0-core0-commit: wid=0, sid=0, PC=0x80000028, ex=ALU, tmask=00000000000000000000000000000001, wb=1, rd=6, sop=1, eop=1, data={0x80000028, 0x80000028, 0x80000028, 0x80000028, 0x80000028, 0x80000028, 0x80000028, 0x80000028, 0x80000028, 0x80000028, 0x80000028, 0x80000028, 0x80000028, 0x80000028, 0x80000028, 0x80000028, 0x80000028, 0x80000028, 0x80000028, 0x80000028, 0x80000028, 0x80000028, 0x80000028, 0x80000028, 0x80000028, 0x80000028, 0x80000028, 0x80000028, 0x80000028, 0x80000028, 0x80000028, 0x80000028} (#22)
                 721: [VX_scoreboard] Issuing u-op. ISSUE_ID=0, sel_wis=0, ex_type=0, op_type=0x0, uuid=#23, PC=0x8000002c
                 721: cluster0-socket0-core0-fetch rsp: wid=0, PC=0x80000030, tmask=00000000000000000000000000000001, instr=0x62900b (#24)
                 723: cluster0-socket0-core0-issue0-ibuffer: wid=0, PC=0x80000030, ex=SFU, op=WSPAWN, tmask=00000000000000000000000000000001, wb=0, used_rs=011, rd=1, rs1=5, rs2=6, rs3=23,  (#24)
                 727: cluster0-socket0-core0-issue0-dispatch: wid=0, sid=0, PC=0x8000002c, ex=ALU, op=ADDI, tmask=00000000000000000000000000000001, wb=1, rd=6, rs1_data={0x1c, 0x1c, 0x1c, 0x1c, 0x1c, 0x1c, 0x1c, 0x1c, 0x1c, 0x1c, 0x1c, 0x1c, 0x1c, 0x1c, 0x1c, 0x1c, 0x1c, 0x1c, 0x1c, 0x1c, 0x1c, 0x1c, 0x1c, 0x1c, 0x1c, 0x1c, 0x1c, 0x1c, 0x1c, 0x1c, 0x1c, 0x80000028}, rs2_data={0x0, 0x0, 0x0, 0x0, 0x0, 0x0, 0x0, 0x0, 0x0, 0x0, 0x0, 0x0, 0x0, 0x0, 0x0, 0x0, 0x0, 0x0, 0x0, 0x0, 0x0, 0x0, 0x0, 0x0, 0x0, 0x0, 0x0, 0x0, 0x0, 0x0, 0x0, 0x0}, rs3_data={0x0, 0x0, 0x0, 0x0, 0x0, 0x0, 0x0, 0x0, 0x0, 0x0, 0x0, 0x0, 0x0, 0x0, 0x0, 0x0, 0x0, 0x0, 0x0, 0x0, 0x0, 0x0, 0x0, 0x0, 0x0, 0x0, 0x0, 0x0, 0x0, 0x0, 0x0, 0x0}, use_PC=0, use_imm=1, imm=0x3a8, sop=1, eop=1 (#23)
                 733: cluster0-socket0-core0-commit: wid=0, sid=0, PC=0x8000002c, ex=ALU, tmask=00000000000000000000000000000001, wb=1, rd=6, sop=1, eop=1, data={0x3c4, 0x3c4, 0x3c4, 0x3c4, 0x3c4, 0x3c4, 0x3c4, 0x3c4, 0x3c4, 0x3c4, 0x3c4, 0x3c4, 0x3c4, 0x3c4, 0x3c4, 0x3c4, 0x3c4, 0x3c4, 0x3c4, 0x3c4, 0x3c4, 0x3c4, 0x3c4, 0x3c4, 0x3c4, 0x3c4, 0x3c4, 0x3c4, 0x3c4, 0x3c4, 0x3c4, 0x800003d0} (#23)
                 739: [VX_scoreboard] Issuing u-op. ISSUE_ID=0, sel_wis=0, ex_type=2, op_type=0x1, uuid=#24, PC=0x80000030
                 745: cluster0-socket0-core0-issue0-dispatch: wid=0, sid=0, PC=0x80000030, ex=SFU, op=WSPAWN, tmask=00000000000000000000000000000001, wb=0, rd=1, rs1_data={0x1, 0x1, 0x1, 0x1, 0x1, 0x1, 0x1, 0x1, 0x1, 0x1, 0x1, 0x1, 0x1, 0x1, 0x1, 0x1, 0x1, 0x1, 0x1, 0x1, 0x1, 0x1, 0x1, 0x1, 0x1, 0x1, 0x1, 0x1, 0x1, 0x1, 0x1, 0x1}, rs2_data={0x1c, 0x1c, 0x1c, 0x1c, 0x1c, 0x1c, 0x1c, 0x1c, 0x1c, 0x1c, 0x1c, 0x1c, 0x1c, 0x1c, 0x1c, 0x1c, 0x1c, 0x1c, 0x1c, 0x1c, 0x1c, 0x1c, 0x1c, 0x1c, 0x1c, 0x1c, 0x1c, 0x1c, 0x1c, 0x1c, 0x1c, 0x800003d0}, rs3_data={0x0, 0x0, 0x0, 0x0, 0x0, 0x0, 0x0, 0x0, 0x0, 0x0, 0x0, 0x0, 0x0, 0x0, 0x0, 0x0, 0x0, 0x0, 0x0, 0x0, 0x0, 0x0, 0x0, 0x0, 0x0, 0x0, 0x0, 0x0, 0x0, 0x0, 0x0, 0x0}, , sop=1, eop=1 (#24)
                 755: cluster0-socket0-core0-schedule: wid=0, PC=0x80000034, tmask=00000000000000000000000000000001 (#25)
                 755: cluster0-socket0-core0-commit: wid=0, sid=0, PC=0x80000030, ex=SFU, tmask=00000000000000000000000000000001, wb=0, rd=1, sop=1, eop=1, data={0x0, 0x0, 0x0, 0x0, 0x0, 0x0, 0x0, 0x0, 0x0, 0x0, 0x0, 0x0, 0x0, 0x0, 0x0, 0x0, 0x0, 0x0, 0x0, 0x0, 0x0, 0x0, 0x0, 0x0, 0x0, 0x0, 0x0, 0x0, 0x0, 0x0, 0x0, 0x0} (#24)
                 757: cluster0-socket0-core0-fetch req: wid=0, PC=0x80000034, tmask=00000000000000000000000000000001 (#25)
                 765: cluster0-socket0-core0-fetch rsp: wid=0, PC=0x80000034, tmask=00000000000000000000000000000001, instr=0xfff00293 (#25)
                 767: cluster0-socket0-core0-schedule: wid=0, PC=0x80000038, tmask=00000000000000000000000000000001 (#26)
                 767: cluster0-socket0-core0-issue0-ibuffer: wid=0, PC=0x80000034, ex=ALU, op=ADDI, tmask=00000000000000000000000000000001, wb=1, used_rs=001, rd=5, rs1=0, rs2=37, rs3=23, use_PC=0, use_imm=1, imm=0xffffffff (#25)
                 769: cluster0-socket0-core0-fetch req: wid=0, PC=0x80000038, tmask=00000000000000000000000000000001 (#26)
                 771: [VX_scoreboard] Issuing u-op. ISSUE_ID=0, sel_wis=0, ex_type=0, op_type=0x0, uuid=#25, PC=0x80000034
                 777: cluster0-socket0-core0-issue0-dispatch: wid=0, sid=0, PC=0x80000034, ex=ALU, op=ADDI, tmask=00000000000000000000000000000001, wb=1, rd=5, rs1_data={0x0, 0x0, 0x0, 0x0, 0x0, 0x0, 0x0, 0x0, 0x0, 0x0, 0x0, 0x0, 0x0, 0x0, 0x0, 0x0, 0x0, 0x0, 0x0, 0x0, 0x0, 0x0, 0x0, 0x0, 0x0, 0x0, 0x0, 0x0, 0x0, 0x0, 0x0, 0x0}, rs2_data={0x0, 0x0, 0x0, 0x0, 0x0, 0x0, 0x0, 0x0, 0x0, 0x0, 0x0, 0x0, 0x0, 0x0, 0x0, 0x0, 0x0, 0x0, 0x0, 0x0, 0x0, 0x0, 0x0, 0x0, 0x0, 0x0, 0x0, 0x0, 0x0, 0x0, 0x0, 0x0}, rs3_data={0x0, 0x0, 0x0, 0x0, 0x0, 0x0, 0x0, 0x0, 0x0, 0x0, 0x0, 0x0, 0x0, 0x0, 0x0, 0x0, 0x0, 0x0, 0x0, 0x0, 0x0, 0x0, 0x0, 0x0, 0x0, 0x0, 0x0, 0x0, 0x0, 0x0, 0x0, 0x0}, use_PC=0, use_imm=1, imm=0xffffffff, sop=1, eop=1 (#25)
                 777: cluster0-socket0-core0-fetch rsp: wid=0, PC=0x80000038, tmask=00000000000000000000000000000001, instr=0x2800b (#26)
                 779: cluster0-socket0-core0-issue0-ibuffer: wid=0, PC=0x80000038, ex=SFU, op=TMC, tmask=00000000000000000000000000000001, wb=0, used_rs=001, rd=1, rs1=5, rs2=37, rs3=23,  (#26)
                 783: cluster0-socket0-core0-commit: wid=0, sid=0, PC=0x80000034, ex=ALU, tmask=00000000000000000000000000000001, wb=1, rd=5, sop=1, eop=1, data={0xffffffff, 0xffffffff, 0xffffffff, 0xffffffff, 0xffffffff, 0xffffffff, 0xffffffff, 0xffffffff, 0xffffffff, 0xffffffff, 0xffffffff, 0xffffffff, 0xffffffff, 0xffffffff, 0xffffffff, 0xffffffff, 0xffffffff, 0xffffffff, 0xffffffff, 0xffffffff, 0xffffffff, 0xffffffff, 0xffffffff, 0xffffffff, 0xffffffff, 0xffffffff, 0xffffffff, 0xffffffff, 0xffffffff, 0xffffffff, 0xffffffff, 0xffffffff} (#25)
                 789: [VX_scoreboard] Issuing u-op. ISSUE_ID=0, sel_wis=0, ex_type=2, op_type=0x0, uuid=#26, PC=0x80000038
                 795: cluster0-socket0-core0-issue0-dispatch: wid=0, sid=0, PC=0x80000038, ex=SFU, op=TMC, tmask=00000000000000000000000000000001, wb=0, rd=1, rs1_data={0x1, 0x1, 0x1, 0x1, 0x1, 0x1, 0x1, 0x1, 0x1, 0x1, 0x1, 0x1, 0x1, 0x1, 0x1, 0x1, 0x1, 0x1, 0x1, 0x1, 0x1, 0x1, 0x1, 0x1, 0x1, 0x1, 0x1, 0x1, 0x1, 0x1, 0x1, 0xffffffff}, rs2_data={0x0, 0x0, 0x0, 0x0, 0x0, 0x0, 0x0, 0x0, 0x0, 0x0, 0x0, 0x0, 0x0, 0x0, 0x0, 0x0, 0x0, 0x0, 0x0, 0x0, 0x0, 0x0, 0x0, 0x0, 0x0, 0x0, 0x0, 0x0, 0x0, 0x0, 0x0, 0x0}, rs3_data={0x0, 0x0, 0x0, 0x0, 0x0, 0x0, 0x0, 0x0, 0x0, 0x0, 0x0, 0x0, 0x0, 0x0, 0x0, 0x0, 0x0, 0x0, 0x0, 0x0, 0x0, 0x0, 0x0, 0x0, 0x0, 0x0, 0x0, 0x0, 0x0, 0x0, 0x0, 0x0}, , sop=1, eop=1 (#26)
                 803: cluster0-socket0-core0-schedule: wid=0, PC=0x8000003c, tmask=11111111111111111111111111111111 (#27)
                 805: cluster0-socket0-core0-commit: wid=0, sid=0, PC=0x80000038, ex=SFU, tmask=00000000000000000000000000000001, wb=0, rd=1, sop=1, eop=1, data={0x0, 0x0, 0x0, 0x0, 0x0, 0x0, 0x0, 0x0, 0x0, 0x0, 0x0, 0x0, 0x0, 0x0, 0x0, 0x0, 0x0, 0x0, 0x0, 0x0, 0x0, 0x0, 0x0, 0x0, 0x0, 0x0, 0x0, 0x0, 0x0, 0x0, 0x0, 0x0} (#26)
                 805: cluster0-socket0-core0-fetch req: wid=0, PC=0x8000003c, tmask=11111111111111111111111111111111 (#27)
                 813: cluster0-socket0-core0-fetch rsp: wid=0, PC=0x8000003c, tmask=11111111111111111111111111111111, instr=0x3a8000ef (#27)
                 815: cluster0-socket0-core0-issue0-ibuffer: wid=0, PC=0x8000003c, ex=ALU, op=JAL, tmask=11111111111111111111111111111111, wb=1, used_rs=000, rd=1, rs1=3, rs2=37, rs3=23, use_PC=1, use_imm=1, imm=0x3a8 (#27)
                 819: [VX_scoreboard] Issuing u-op. ISSUE_ID=0, sel_wis=0, ex_type=0, op_type=0x8, uuid=#27, PC=0x8000003c
                 825: cluster0-socket0-core0-issue0-dispatch: wid=0, sid=0, PC=0x8000003c, ex=ALU, op=JAL, tmask=11111111111111111111111111111111, wb=1, rd=1, rs1_data={0x0, 0x0, 0x0, 0x0, 0x0, 0x0, 0x0, 0x0, 0x0, 0x0, 0x0, 0x0, 0x0, 0x0, 0x0, 0x0, 0x0, 0x0, 0x0, 0x0, 0x0, 0x0, 0x0, 0x0, 0x0, 0x0, 0x0, 0x0, 0x0, 0x0, 0x0, 0x0}, rs2_data={0x0, 0x0, 0x0, 0x0, 0x0, 0x0, 0x0, 0x0, 0x0, 0x0, 0x0, 0x0, 0x0, 0x0, 0x0, 0x0, 0x0, 0x0, 0x0, 0x0, 0x0, 0x0, 0x0, 0x0, 0x0, 0x0, 0x0, 0x0, 0x0, 0x0, 0x0, 0x0}, rs3_data={0x0, 0x0, 0x0, 0x0, 0x0, 0x0, 0x0, 0x0, 0x0, 0x0, 0x0, 0x0, 0x0, 0x0, 0x0, 0x0, 0x0, 0x0, 0x0, 0x0, 0x0, 0x0, 0x0, 0x0, 0x0, 0x0, 0x0, 0x0, 0x0, 0x0, 0x0, 0x0}, use_PC=1, use_imm=1, imm=0x3a8, sop=1, eop=1 (#27)
                 831: cluster0-socket0-core0-commit: wid=0, sid=0, PC=0x8000003c, ex=ALU, tmask=11111111111111111111111111111111, wb=1, rd=1, sop=1, eop=1, data={0x80000040, 0x80000040, 0x80000040, 0x80000040, 0x80000040, 0x80000040, 0x80000040, 0x80000040, 0x80000040, 0x80000040, 0x80000040, 0x80000040, 0x80000040, 0x80000040, 0x80000040, 0x80000040, 0x80000040, 0x80000040, 0x80000040, 0x80000040, 0x80000040, 0x80000040, 0x80000040, 0x80000040, 0x80000040, 0x80000040, 0x80000040, 0x80000040, 0x80000040, 0x80000040, 0x80000040, 0x80000040} (#27)
                 833: cluster0-socket0-core0-schedule: wid=0, PC=0x800003e4, tmask=11111111111111111111111111111111 (#28)
                 835: cluster0-socket0-core0-fetch req: wid=0, PC=0x800003e4, tmask=11111111111111111111111111111111 (#28)
                 887: cluster0-socket0-core0-fetch rsp: wid=0, PC=0x800003e4, tmask=11111111111111111111111111111111, instr=0xff010113 (#28)
                 889: cluster0-socket0-core0-schedule: wid=0, PC=0x800003e8, tmask=11111111111111111111111111111111 (#29)
                 889: cluster0-socket0-core0-issue0-ibuffer: wid=0, PC=0x800003e4, ex=ALU, op=ADDI, tmask=11111111111111111111111111111111, wb=1, used_rs=001, rd=2, rs1=2, rs2=37, rs3=23, use_PC=0, use_imm=1, imm=0xfffffff0 (#28)
                 891: cluster0-socket0-core0-fetch req: wid=0, PC=0x800003e8, tmask=11111111111111111111111111111111 (#29)
                 893: [VX_scoreboard] Issuing u-op. ISSUE_ID=0, sel_wis=0, ex_type=0, op_type=0x0, uuid=#28, PC=0x800003e4
                 899: cluster0-socket0-core0-issue0-dispatch: wid=0, sid=0, PC=0x800003e4, ex=ALU, op=ADDI, tmask=11111111111111111111111111111111, wb=1, rd=2, rs1_data={0xfffb2000, 0xfffb4000, 0xfffb6000, 0xfffb8000, 0xfffba000, 0xfffbc000, 0xfffbe000, 0xfffc0000, 0xfffc2000, 0xfffc4000, 0xfffc6000, 0xfffc8000, 0xfffca000, 0xfffcc000, 0xfffce000, 0xfffd0000, 0xfffd2000, 0xfffd4000, 0xfffd6000, 0xfffd8000, 0xfffda000, 0xfffdc000, 0xfffde000, 0xfffe0000, 0xfffe2000, 0xfffe4000, 0xfffe6000, 0xfffe8000, 0xfffea000, 0xfffec000, 0xfffee000, 0xffff0000}, rs2_data={0x0, 0x0, 0x0, 0x0, 0x0, 0x0, 0x0, 0x0, 0x0, 0x0, 0x0, 0x0, 0x0, 0x0, 0x0, 0x0, 0x0, 0x0, 0x0, 0x0, 0x0, 0x0, 0x0, 0x0, 0x0, 0x0, 0x0, 0x0, 0x0, 0x0, 0x0, 0x0}, rs3_data={0x0, 0x0, 0x0, 0x0, 0x0, 0x0, 0x0, 0x0, 0x0, 0x0, 0x0, 0x0, 0x0, 0x0, 0x0, 0x0, 0x0, 0x0, 0x0, 0x0, 0x0, 0x0, 0x0, 0x0, 0x0, 0x0, 0x0, 0x0, 0x0, 0x0, 0x0, 0x0}, use_PC=0, use_imm=1, imm=0xfffffff0, sop=1, eop=1 (#28)
                 899: cluster0-socket0-core0-fetch rsp: wid=0, PC=0x800003e8, tmask=11111111111111111111111111111111, instr=0x613 (#29)
                 901: cluster0-socket0-core0-schedule: wid=0, PC=0x800003ec, tmask=11111111111111111111111111111111 (#30)
                 901: cluster0-socket0-core0-issue0-ibuffer: wid=0, PC=0x800003e8, ex=ALU, op=ADDI, tmask=11111111111111111111111111111111, wb=1, used_rs=001, rd=12, rs1=0, rs2=37, rs3=23, use_PC=0, use_imm=1, imm=0x0 (#29)
                 903: cluster0-socket0-core0-fetch req: wid=0, PC=0x800003ec, tmask=11111111111111111111111111111111 (#30)
                 905: cluster0-socket0-core0-commit: wid=0, sid=0, PC=0x800003e4, ex=ALU, tmask=11111111111111111111111111111111, wb=1, rd=2, sop=1, eop=1, data={0xfffb1ff0, 0xfffb3ff0, 0xfffb5ff0, 0xfffb7ff0, 0xfffb9ff0, 0xfffbbff0, 0xfffbdff0, 0xfffbfff0, 0xfffc1ff0, 0xfffc3ff0, 0xfffc5ff0, 0xfffc7ff0, 0xfffc9ff0, 0xfffcbff0, 0xfffcdff0, 0xfffcfff0, 0xfffd1ff0, 0xfffd3ff0, 0xfffd5ff0, 0xfffd7ff0, 0xfffd9ff0, 0xfffdbff0, 0xfffddff0, 0xfffdfff0, 0xfffe1ff0, 0xfffe3ff0, 0xfffe5ff0, 0xfffe7ff0, 0xfffe9ff0, 0xfffebff0, 0xfffedff0, 0xfffefff0} (#28)
                 905: [VX_scoreboard] Issuing u-op. ISSUE_ID=0, sel_wis=0, ex_type=0, op_type=0x0, uuid=#29, PC=0x800003e8
                 911: cluster0-socket0-core0-issue0-dispatch: wid=0, sid=0, PC=0x800003e8, ex=ALU, op=ADDI, tmask=11111111111111111111111111111111, wb=1, rd=12, rs1_data={0x0, 0x0, 0x0, 0x0, 0x0, 0x0, 0x0, 0x0, 0x0, 0x0, 0x0, 0x0, 0x0, 0x0, 0x0, 0x0, 0x0, 0x0, 0x0, 0x0, 0x0, 0x0, 0x0, 0x0, 0x0, 0x0, 0x0, 0x0, 0x0, 0x0, 0x0, 0x0}, rs2_data={0x0, 0x0, 0x0, 0x0, 0x0, 0x0, 0x0, 0x0, 0x0, 0x0, 0x0, 0x0, 0x0, 0x0, 0x0, 0x0, 0x0, 0x0, 0x0, 0x0, 0x0, 0x0, 0x0, 0x0, 0x0, 0x0, 0x0, 0x0, 0x0, 0x0, 0x0, 0x0}, rs3_data={0x0, 0x0, 0x0, 0x0, 0x0, 0x0, 0x0, 0x0, 0x0, 0x0, 0x0, 0x0, 0x0, 0x0, 0x0, 0x0, 0x0, 0x0, 0x0, 0x0, 0x0, 0x0, 0x0, 0x0, 0x0, 0x0, 0x0, 0x0, 0x0, 0x0, 0x0, 0x0}, use_PC=0, use_imm=1, imm=0x0, sop=1, eop=1 (#29)
                 911: cluster0-socket0-core0-fetch rsp: wid=0, PC=0x800003ec, tmask=11111111111111111111111111111111, instr=0x7597 (#30)
                 913: cluster0-socket0-core0-schedule: wid=0, PC=0x800003f0, tmask=11111111111111111111111111111111 (#31)
                 913: cluster0-socket0-core0-issue0-ibuffer: wid=0, PC=0x800003ec, ex=ALU, op=AUIPC, tmask=11111111111111111111111111111111, wb=1, used_rs=000, rd=11, rs1=3, rs2=37, rs3=23, use_PC=1, use_imm=1, imm=0x7000 (#30)
                 915: cluster0-socket0-core0-fetch req: wid=0, PC=0x800003f0, tmask=11111111111111111111111111111111 (#31)
                 917: cluster0-socket0-core0-commit: wid=0, sid=0, PC=0x800003e8, ex=ALU, tmask=11111111111111111111111111111111, wb=1, rd=12, sop=1, eop=1, data={0x0, 0x0, 0x0, 0x0, 0x0, 0x0, 0x0, 0x0, 0x0, 0x0, 0x0, 0x0, 0x0, 0x0, 0x0, 0x0, 0x0, 0x0, 0x0, 0x0, 0x0, 0x0, 0x0, 0x0, 0x0, 0x0, 0x0, 0x0, 0x0, 0x0, 0x0, 0x0} (#29)
                 917: [VX_scoreboard] Issuing u-op. ISSUE_ID=0, sel_wis=0, ex_type=0, op_type=0x3, uuid=#30, PC=0x800003ec
                 923: cluster0-socket0-core0-issue0-dispatch: wid=0, sid=0, PC=0x800003ec, ex=ALU, op=AUIPC, tmask=11111111111111111111111111111111, wb=1, rd=11, rs1_data={0x0, 0x0, 0x0, 0x0, 0x0, 0x0, 0x0, 0x0, 0x0, 0x0, 0x0, 0x0, 0x0, 0x0, 0x0, 0x0, 0x0, 0x0, 0x0, 0x0, 0x0, 0x0, 0x0, 0x0, 0x0, 0x0, 0x0, 0x0, 0x0, 0x0, 0x0, 0x0}, rs2_data={0x0, 0x0, 0x0, 0x0, 0x0, 0x0, 0x0, 0x0, 0x0, 0x0, 0x0, 0x0, 0x0, 0x0, 0x0, 0x0, 0x0, 0x0, 0x0, 0x0, 0x0, 0x0, 0x0, 0x0, 0x0, 0x0, 0x0, 0x0, 0x0, 0x0, 0x0, 0x0}, rs3_data={0x0, 0x0, 0x0, 0x0, 0x0, 0x0, 0x0, 0x0, 0x0, 0x0, 0x0, 0x0, 0x0, 0x0, 0x0, 0x0, 0x0, 0x0, 0x0, 0x0, 0x0, 0x0, 0x0, 0x0, 0x0, 0x0, 0x0, 0x0, 0x0, 0x0, 0x0, 0x0}, use_PC=1, use_imm=1, imm=0x7000, sop=1, eop=1 (#30)
                 923: cluster0-socket0-core0-fetch rsp: wid=0, PC=0x800003f0, tmask=11111111111111111111111111111111, instr=0x5858593 (#31)
                 925: cluster0-socket0-core0-schedule: wid=0, PC=0x800003f4, tmask=11111111111111111111111111111111 (#32)
                 925: cluster0-socket0-core0-issue0-ibuffer: wid=0, PC=0x800003f0, ex=ALU, op=ADDI, tmask=11111111111111111111111111111111, wb=1, used_rs=001, rd=11, rs1=11, rs2=37, rs3=23, use_PC=0, use_imm=1, imm=0x58 (#31)
                 927: cluster0-socket0-core0-fetch req: wid=0, PC=0x800003f4, tmask=11111111111111111111111111111111 (#32)
                 929: cluster0-socket0-core0-commit: wid=0, sid=0, PC=0x800003ec, ex=ALU, tmask=11111111111111111111111111111111, wb=1, rd=11, sop=1, eop=1, data={0x800073ec, 0x800073ec, 0x800073ec, 0x800073ec, 0x800073ec, 0x800073ec, 0x800073ec, 0x800073ec, 0x800073ec, 0x800073ec, 0x800073ec, 0x800073ec, 0x800073ec, 0x800073ec, 0x800073ec, 0x800073ec, 0x800073ec, 0x800073ec, 0x800073ec, 0x800073ec, 0x800073ec, 0x800073ec, 0x800073ec, 0x800073ec, 0x800073ec, 0x800073ec, 0x800073ec, 0x800073ec, 0x800073ec, 0x800073ec, 0x800073ec, 0x800073ec} (#30)
                 935: [VX_scoreboard] Issuing u-op. ISSUE_ID=0, sel_wis=0, ex_type=0, op_type=0x0, uuid=#31, PC=0x800003f0
                 935: cluster0-socket0-core0-fetch rsp: wid=0, PC=0x800003f4, tmask=11111111111111111111111111111111, instr=0x20513 (#32)
                 937: cluster0-socket0-core0-schedule: wid=0, PC=0x800003f8, tmask=11111111111111111111111111111111 (#33)
                 937: cluster0-socket0-core0-issue0-ibuffer: wid=0, PC=0x800003f4, ex=ALU, op=ADDI, tmask=11111111111111111111111111111111, wb=1, used_rs=001, rd=10, rs1=4, rs2=37, rs3=23, use_PC=0, use_imm=1, imm=0x0 (#32)
                 939: cluster0-socket0-core0-fetch req: wid=0, PC=0x800003f8, tmask=11111111111111111111111111111111 (#33)
                 941: cluster0-socket0-core0-issue0-dispatch: wid=0, sid=0, PC=0x800003f0, ex=ALU, op=ADDI, tmask=11111111111111111111111111111111, wb=1, rd=11, rs1_data={0x800073ec, 0x800073ec, 0x800073ec, 0x800073ec, 0x800073ec, 0x800073ec, 0x800073ec, 0x800073ec, 0x800073ec, 0x800073ec, 0x800073ec, 0x800073ec, 0x800073ec, 0x800073ec, 0x800073ec, 0x800073ec, 0x800073ec, 0x800073ec, 0x800073ec, 0x800073ec, 0x800073ec, 0x800073ec, 0x800073ec, 0x800073ec, 0x800073ec, 0x800073ec, 0x800073ec, 0x800073ec, 0x800073ec, 0x800073ec, 0x800073ec, 0x800073ec}, rs2_data={0x0, 0x0, 0x0, 0x0, 0x0, 0x0, 0x0, 0x0, 0x0, 0x0, 0x0, 0x0, 0x0, 0x0, 0x0, 0x0, 0x0, 0x0, 0x0, 0x0, 0x0, 0x0, 0x0, 0x0, 0x0, 0x0, 0x0, 0x0, 0x0, 0x0, 0x0, 0x0}, rs3_data={0x0, 0x0, 0x0, 0x0, 0x0, 0x0, 0x0, 0x0, 0x0, 0x0, 0x0, 0x0, 0x0, 0x0, 0x0, 0x0, 0x0, 0x0, 0x0, 0x0, 0x0, 0x0, 0x0, 0x0, 0x0, 0x0, 0x0, 0x0, 0x0, 0x0, 0x0, 0x0}, use_PC=0, use_imm=1, imm=0x58, sop=1, eop=1 (#31)
                 941: [VX_scoreboard] Issuing u-op. ISSUE_ID=0, sel_wis=0, ex_type=0, op_type=0x0, uuid=#32, PC=0x800003f4
                 947: cluster0-socket0-core0-commit: wid=0, sid=0, PC=0x800003f0, ex=ALU, tmask=11111111111111111111111111111111, wb=1, rd=11, sop=1, eop=1, data={0x80007444, 0x80007444, 0x80007444, 0x80007444, 0x80007444, 0x80007444, 0x80007444, 0x80007444, 0x80007444, 0x80007444, 0x80007444, 0x80007444, 0x80007444, 0x80007444, 0x80007444, 0x80007444, 0x80007444, 0x80007444, 0x80007444, 0x80007444, 0x80007444, 0x80007444, 0x80007444, 0x80007444, 0x80007444, 0x80007444, 0x80007444, 0x80007444, 0x80007444, 0x80007444, 0x80007444, 0x80007444} (#31)
                 947: cluster0-socket0-core0-issue0-dispatch: wid=0, sid=0, PC=0x800003f4, ex=ALU, op=ADDI, tmask=11111111111111111111111111111111, wb=1, rd=10, rs1_data={0x80007878, 0x8000785c, 0x80007840, 0x80007824, 0x80007808, 0x800077ec, 0x800077d0, 0x800077b4, 0x80007798, 0x8000777c, 0x80007760, 0x80007744, 0x80007728, 0x8000770c, 0x800076f0, 0x800076d4, 0x800076b8, 0x8000769c, 0x80007680, 0x80007664, 0x80007648, 0x8000762c, 0x80007610, 0x800075f4, 0x800075d8, 0x800075bc, 0x800075a0, 0x80007584, 0x80007568, 0x8000754c, 0x80007530, 0x80007514}, rs2_data={0x0, 0x0, 0x0, 0x0, 0x0, 0x0, 0x0, 0x0, 0x0, 0x0, 0x0, 0x0, 0x0, 0x0, 0x0, 0x0, 0x0, 0x0, 0x0, 0x0, 0x0, 0x0, 0x0, 0x0, 0x0, 0x0, 0x0, 0x0, 0x0, 0x0, 0x0, 0x0}, rs3_data={0x0, 0x0, 0x0, 0x0, 0x0, 0x0, 0x0, 0x0, 0x0, 0x0, 0x0, 0x0, 0x0, 0x0, 0x0, 0x0, 0x0, 0x0, 0x0, 0x0, 0x0, 0x0, 0x0, 0x0, 0x0, 0x0, 0x0, 0x0, 0x0, 0x0, 0x0, 0x0}, use_PC=0, use_imm=1, imm=0x0, sop=1, eop=1 (#32)
                 947: cluster0-socket0-core0-fetch rsp: wid=0, PC=0x800003f8, tmask=11111111111111111111111111111111, instr=0x812423 (#33)
                 949: cluster0-socket0-core0-schedule: wid=0, PC=0x800003fc, tmask=11111111111111111111111111111111 (#34)
                 949: cluster0-socket0-core0-issue0-ibuffer: wid=0, PC=0x800003f8, ex=LSU, op=SW, tmask=11111111111111111111111111111111, wb=0, used_rs=011, rd=1, rs1=2, rs2=8, rs3=23, offset=0x8 (#33)
                 951: cluster0-socket0-core0-fetch req: wid=0, PC=0x800003fc, tmask=11111111111111111111111111111111 (#34)
                 953: cluster0-socket0-core0-commit: wid=0, sid=0, PC=0x800003f4, ex=ALU, tmask=11111111111111111111111111111111, wb=1, rd=10, sop=1, eop=1, data={0x80007878, 0x8000785c, 0x80007840, 0x80007824, 0x80007808, 0x800077ec, 0x800077d0, 0x800077b4, 0x80007798, 0x8000777c, 0x80007760, 0x80007744, 0x80007728, 0x8000770c, 0x800076f0, 0x800076d4, 0x800076b8, 0x8000769c, 0x80007680, 0x80007664, 0x80007648, 0x8000762c, 0x80007610, 0x800075f4, 0x800075d8, 0x800075bc, 0x800075a0, 0x80007584, 0x80007568, 0x8000754c, 0x80007530, 0x80007514} (#32)
                 953: [VX_scoreboard] Issuing store u-op. ISSUE_ID=0, sel_wis=0, op_type=0xa, uuid=#33, PC=0x800003f8
                 959: cluster0-socket0-core0-issue0-dispatch: wid=0, sid=0, PC=0x800003f8, ex=LSU, op=SW, tmask=11111111111111111111111111111111, wb=0, rd=1, rs1_data={0xfffb1ff0, 0xfffb3ff0, 0xfffb5ff0, 0xfffb7ff0, 0xfffb9ff0, 0xfffbbff0, 0xfffbdff0, 0xfffbfff0, 0xfffc1ff0, 0xfffc3ff0, 0xfffc5ff0, 0xfffc7ff0, 0xfffc9ff0, 0xfffcbff0, 0xfffcdff0, 0xfffcfff0, 0xfffd1ff0, 0xfffd3ff0, 0xfffd5ff0, 0xfffd7ff0, 0xfffd9ff0, 0xfffdbff0, 0xfffddff0, 0xfffdfff0, 0xfffe1ff0, 0xfffe3ff0, 0xfffe5ff0, 0xfffe7ff0, 0xfffe9ff0, 0xfffebff0, 0xfffedff0, 0xfffefff0}, rs2_data={0x0, 0x0, 0x0, 0x0, 0x0, 0x0, 0x0, 0x0, 0x0, 0x0, 0x0, 0x0, 0x0, 0x0, 0x0, 0x0, 0x0, 0x0, 0x0, 0x0, 0x0, 0x0, 0x0, 0x0, 0x0, 0x0, 0x0, 0x0, 0x0, 0x0, 0x0, 0x0}, rs3_data={0x0, 0x0, 0x0, 0x0, 0x0, 0x0, 0x0, 0x0, 0x0, 0x0, 0x0, 0x0, 0x0, 0x0, 0x0, 0x0, 0x0, 0x0, 0x0, 0x0, 0x0, 0x0, 0x0, 0x0, 0x0, 0x0, 0x0, 0x0, 0x0, 0x0, 0x0, 0x0}, offset=0x8, sop=1, eop=1 (#33)
                 959: cluster0-socket0-core0-fetch rsp: wid=0, PC=0x800003fc, tmask=11111111111111111111111111111111, instr=0x112623 (#34)
                 961: cluster0-socket0-core0-schedule: wid=0, PC=0x80000400, tmask=11111111111111111111111111111111 (#35)
                 961: cluster0-socket0-core0-issue0-ibuffer: wid=0, PC=0x800003fc, ex=LSU, op=SW, tmask=11111111111111111111111111111111, wb=0, used_rs=011, rd=1, rs1=2, rs2=1, rs3=23, offset=0xc (#34)
                 963: cluster0-socket0-core0-fetch req: wid=0, PC=0x80000400, tmask=11111111111111111111111111111111 (#35)
                 965: [VX_scoreboard] Issuing store u-op. ISSUE_ID=0, sel_wis=0, op_type=0xa, uuid=#34, PC=0x800003fc
                 969: cluster0-socket0-core0-commit: wid=0, sid=0, PC=0x800003f8, ex=LSU, tmask=11111111111111111111111111111111, wb=0, rd=0, sop=1, eop=1, data={0xac, 0x3f, 0xba, 0xf8, 0xfa, 0xc6, 0xb4, 0x47, 0x33, 0x20, 0x3d, 0xd3, 0x18, 0x1a, 0x88, 0x27, 0x2e, 0xbf, 0x98, 0x8e, 0xdd, 0xa3, 0xb7, 0xe8, 0xac, 0x18, 0xd3, 0x36, 0x67, 0xeb, 0xff, 0x73} (#33)
                 971: cluster0-socket0-core0-issue0-dispatch: wid=0, sid=0, PC=0x800003fc, ex=LSU, op=SW, tmask=11111111111111111111111111111111, wb=0, rd=1, rs1_data={0xfffb1ff0, 0xfffb3ff0, 0xfffb5ff0, 0xfffb7ff0, 0xfffb9ff0, 0xfffbbff0, 0xfffbdff0, 0xfffbfff0, 0xfffc1ff0, 0xfffc3ff0, 0xfffc5ff0, 0xfffc7ff0, 0xfffc9ff0, 0xfffcbff0, 0xfffcdff0, 0xfffcfff0, 0xfffd1ff0, 0xfffd3ff0, 0xfffd5ff0, 0xfffd7ff0, 0xfffd9ff0, 0xfffdbff0, 0xfffddff0, 0xfffdfff0, 0xfffe1ff0, 0xfffe3ff0, 0xfffe5ff0, 0xfffe7ff0, 0xfffe9ff0, 0xfffebff0, 0xfffedff0, 0xfffefff0}, rs2_data={0x80000040, 0x80000040, 0x80000040, 0x80000040, 0x80000040, 0x80000040, 0x80000040, 0x80000040, 0x80000040, 0x80000040, 0x80000040, 0x80000040, 0x80000040, 0x80000040, 0x80000040, 0x80000040, 0x80000040, 0x80000040, 0x80000040, 0x80000040, 0x80000040, 0x80000040, 0x80000040, 0x80000040, 0x80000040, 0x80000040, 0x80000040, 0x80000040, 0x80000040, 0x80000040, 0x80000040, 0x80000040}, rs3_data={0x0, 0x0, 0x0, 0x0, 0x0, 0x0, 0x0, 0x0, 0x0, 0x0, 0x0, 0x0, 0x0, 0x0, 0x0, 0x0, 0x0, 0x0, 0x0, 0x0, 0x0, 0x0, 0x0, 0x0, 0x0, 0x0, 0x0, 0x0, 0x0, 0x0, 0x0, 0x0}, offset=0xc, sop=1, eop=1 (#34)
                 981: cluster0-socket0-core0-commit: wid=0, sid=0, PC=0x800003fc, ex=LSU, tmask=11111111111111111111111111111111, wb=0, rd=0, sop=1, eop=1, data={0xac, 0x3f, 0xba, 0xf8, 0xfa, 0xc6, 0xb4, 0x47, 0x33, 0x20, 0x3d, 0xd3, 0x18, 0x1a, 0x88, 0x27, 0x2e, 0xbf, 0x98, 0x8e, 0xdd, 0xa3, 0xb7, 0xe8, 0xac, 0x18, 0xd3, 0x36, 0x67, 0xeb, 0xff, 0x73} (#34)
                1015: cluster0-socket0-core0-fetch rsp: wid=0, PC=0x80000400, tmask=11111111111111111111111111111111, instr=0x20413 (#35)
                1017: cluster0-socket0-core0-schedule: wid=0, PC=0x80000404, tmask=11111111111111111111111111111111 (#36)
                1017: cluster0-socket0-core0-issue0-ibuffer: wid=0, PC=0x80000400, ex=ALU, op=ADDI, tmask=11111111111111111111111111111111, wb=1, used_rs=001, rd=8, rs1=4, rs2=37, rs3=23, use_PC=0, use_imm=1, imm=0x0 (#35)
                1019: cluster0-socket0-core0-fetch req: wid=0, PC=0x80000404, tmask=11111111111111111111111111111111 (#36)
                1021: [VX_scoreboard] Issuing u-op. ISSUE_ID=0, sel_wis=0, ex_type=0, op_type=0x0, uuid=#35, PC=0x80000400
                1027: cluster0-socket0-core0-issue0-dispatch: wid=0, sid=0, PC=0x80000400, ex=ALU, op=ADDI, tmask=11111111111111111111111111111111, wb=1, rd=8, rs1_data={0x80007878, 0x8000785c, 0x80007840, 0x80007824, 0x80007808, 0x800077ec, 0x800077d0, 0x800077b4, 0x80007798, 0x8000777c, 0x80007760, 0x80007744, 0x80007728, 0x8000770c, 0x800076f0, 0x800076d4, 0x800076b8, 0x8000769c, 0x80007680, 0x80007664, 0x80007648, 0x8000762c, 0x80007610, 0x800075f4, 0x800075d8, 0x800075bc, 0x800075a0, 0x80007584, 0x80007568, 0x8000754c, 0x80007530, 0x80007514}, rs2_data={0x0, 0x0, 0x0, 0x0, 0x0, 0x0, 0x0, 0x0, 0x0, 0x0, 0x0, 0x0, 0x0, 0x0, 0x0, 0x0, 0x0, 0x0, 0x0, 0x0, 0x0, 0x0, 0x0, 0x0, 0x0, 0x0, 0x0, 0x0, 0x0, 0x0, 0x0, 0x0}, rs3_data={0x0, 0x0, 0x0, 0x0, 0x0, 0x0, 0x0, 0x0, 0x0, 0x0, 0x0, 0x0, 0x0, 0x0, 0x0, 0x0, 0x0, 0x0, 0x0, 0x0, 0x0, 0x0, 0x0, 0x0, 0x0, 0x0, 0x0, 0x0, 0x0, 0x0, 0x0, 0x0}, use_PC=0, use_imm=1, imm=0x0, sop=1, eop=1 (#35)
                1027: cluster0-socket0-core0-fetch rsp: wid=0, PC=0x80000404, tmask=11111111111111111111111111111111, instr=0x311020ef (#36)
                1029: cluster0-socket0-core0-issue0-ibuffer: wid=0, PC=0x80000404, ex=ALU, op=JAL, tmask=11111111111111111111111111111111, wb=1, used_rs=000, rd=1, rs1=3, rs2=37, rs3=23, use_PC=1, use_imm=1, imm=0x2b10 (#36)
                1033: cluster0-socket0-core0-commit: wid=0, sid=0, PC=0x80000400, ex=ALU, tmask=11111111111111111111111111111111, wb=1, rd=8, sop=1, eop=1, data={0x80007878, 0x8000785c, 0x80007840, 0x80007824, 0x80007808, 0x800077ec, 0x800077d0, 0x800077b4, 0x80007798, 0x8000777c, 0x80007760, 0x80007744, 0x80007728, 0x8000770c, 0x800076f0, 0x800076d4, 0x800076b8, 0x8000769c, 0x80007680, 0x80007664, 0x80007648, 0x8000762c, 0x80007610, 0x800075f4, 0x800075d8, 0x800075bc, 0x800075a0, 0x80007584, 0x80007568, 0x8000754c, 0x80007530, 0x80007514} (#35)
                1033: [VX_scoreboard] Issuing u-op. ISSUE_ID=0, sel_wis=0, ex_type=0, op_type=0x8, uuid=#36, PC=0x80000404
                1039: cluster0-socket0-core0-issue0-dispatch: wid=0, sid=0, PC=0x80000404, ex=ALU, op=JAL, tmask=11111111111111111111111111111111, wb=1, rd=1, rs1_data={0x0, 0x0, 0x0, 0x0, 0x0, 0x0, 0x0, 0x0, 0x0, 0x0, 0x0, 0x0, 0x0, 0x0, 0x0, 0x0, 0x0, 0x0, 0x0, 0x0, 0x0, 0x0, 0x0, 0x0, 0x0, 0x0, 0x0, 0x0, 0x0, 0x0, 0x0, 0x0}, rs2_data={0x0, 0x0, 0x0, 0x0, 0x0, 0x0, 0x0, 0x0, 0x0, 0x0, 0x0, 0x0, 0x0, 0x0, 0x0, 0x0, 0x0, 0x0, 0x0, 0x0, 0x0, 0x0, 0x0, 0x0, 0x0, 0x0, 0x0, 0x0, 0x0, 0x0, 0x0, 0x0}, rs3_data={0x0, 0x0, 0x0, 0x0, 0x0, 0x0, 0x0, 0x0, 0x0, 0x0, 0x0, 0x0, 0x0, 0x0, 0x0, 0x0, 0x0, 0x0, 0x0, 0x0, 0x0, 0x0, 0x0, 0x0, 0x0, 0x0, 0x0, 0x0, 0x0, 0x0, 0x0, 0x0}, use_PC=1, use_imm=1, imm=0x2b10, sop=1, eop=1 (#36)
                1045: cluster0-socket0-core0-commit: wid=0, sid=0, PC=0x80000404, ex=ALU, tmask=11111111111111111111111111111111, wb=1, rd=1, sop=1, eop=1, data={0x80000408, 0x80000408, 0x80000408, 0x80000408, 0x80000408, 0x80000408, 0x80000408, 0x80000408, 0x80000408, 0x80000408, 0x80000408, 0x80000408, 0x80000408, 0x80000408, 0x80000408, 0x80000408, 0x80000408, 0x80000408, 0x80000408, 0x80000408, 0x80000408, 0x80000408, 0x80000408, 0x80000408, 0x80000408, 0x80000408, 0x80000408, 0x80000408, 0x80000408, 0x80000408, 0x80000408, 0x80000408} (#36)
                1047: cluster0-socket0-core0-schedule: wid=0, PC=0x80002f14, tmask=11111111111111111111111111111111 (#37)
                1049: cluster0-socket0-core0-fetch req: wid=0, PC=0x80002f14, tmask=11111111111111111111111111111111 (#37)
                2043: cluster0-socket0-core0-fetch rsp: wid=0, PC=0x80002f14, tmask=11111111111111111111111111111111, instr=0xff010113 (#37)
                2045: cluster0-socket0-core0-schedule: wid=0, PC=0x80002f18, tmask=11111111111111111111111111111111 (#38)
                2045: cluster0-socket0-core0-issue0-ibuffer: wid=0, PC=0x80002f14, ex=ALU, op=ADDI, tmask=11111111111111111111111111111111, wb=1, used_rs=001, rd=2, rs1=2, rs2=37, rs3=23, use_PC=0, use_imm=1, imm=0xfffffff0 (#37)
                2047: cluster0-socket0-core0-fetch req: wid=0, PC=0x80002f18, tmask=11111111111111111111111111111111 (#38)
                2049: [VX_scoreboard] Issuing u-op. ISSUE_ID=0, sel_wis=0, ex_type=0, op_type=0x0, uuid=#37, PC=0x80002f14
                2055: cluster0-socket0-core0-issue0-dispatch: wid=0, sid=0, PC=0x80002f14, ex=ALU, op=ADDI, tmask=11111111111111111111111111111111, wb=1, rd=2, rs1_data={0xfffb1ff0, 0xfffb3ff0, 0xfffb5ff0, 0xfffb7ff0, 0xfffb9ff0, 0xfffbbff0, 0xfffbdff0, 0xfffbfff0, 0xfffc1ff0, 0xfffc3ff0, 0xfffc5ff0, 0xfffc7ff0, 0xfffc9ff0, 0xfffcbff0, 0xfffcdff0, 0xfffcfff0, 0xfffd1ff0, 0xfffd3ff0, 0xfffd5ff0, 0xfffd7ff0, 0xfffd9ff0, 0xfffdbff0, 0xfffddff0, 0xfffdfff0, 0xfffe1ff0, 0xfffe3ff0, 0xfffe5ff0, 0xfffe7ff0, 0xfffe9ff0, 0xfffebff0, 0xfffedff0, 0xfffefff0}, rs2_data={0x0, 0x0, 0x0, 0x0, 0x0, 0x0, 0x0, 0x0, 0x0, 0x0, 0x0, 0x0, 0x0, 0x0, 0x0, 0x0, 0x0, 0x0, 0x0, 0x0, 0x0, 0x0, 0x0, 0x0, 0x0, 0x0, 0x0, 0x0, 0x0, 0x0, 0x0, 0x0}, rs3_data={0x0, 0x0, 0x0, 0x0, 0x0, 0x0, 0x0, 0x0, 0x0, 0x0, 0x0, 0x0, 0x0, 0x0, 0x0, 0x0, 0x0, 0x0, 0x0, 0x0, 0x0, 0x0, 0x0, 0x0, 0x0, 0x0, 0x0, 0x0, 0x0, 0x0, 0x0, 0x0}, use_PC=0, use_imm=1, imm=0xfffffff0, sop=1, eop=1 (#37)
                2055: cluster0-socket0-core0-fetch rsp: wid=0, PC=0x80002f18, tmask=11111111111111111111111111111111, instr=0x812623 (#38)
                2057: cluster0-socket0-core0-schedule: wid=0, PC=0x80002f1c, tmask=11111111111111111111111111111111 (#39)
                2057: cluster0-socket0-core0-issue0-ibuffer: wid=0, PC=0x80002f18, ex=LSU, op=SW, tmask=11111111111111111111111111111111, wb=0, used_rs=011, rd=1, rs1=2, rs2=8, rs3=23, offset=0xc (#38)
                2059: cluster0-socket0-core0-fetch req: wid=0, PC=0x80002f1c, tmask=11111111111111111111111111111111 (#39)
                2061: cluster0-socket0-core0-commit: wid=0, sid=0, PC=0x80002f14, ex=ALU, tmask=11111111111111111111111111111111, wb=1, rd=2, sop=1, eop=1, data={0xfffb1fe0, 0xfffb3fe0, 0xfffb5fe0, 0xfffb7fe0, 0xfffb9fe0, 0xfffbbfe0, 0xfffbdfe0, 0xfffbffe0, 0xfffc1fe0, 0xfffc3fe0, 0xfffc5fe0, 0xfffc7fe0, 0xfffc9fe0, 0xfffcbfe0, 0xfffcdfe0, 0xfffcffe0, 0xfffd1fe0, 0xfffd3fe0, 0xfffd5fe0, 0xfffd7fe0, 0xfffd9fe0, 0xfffdbfe0, 0xfffddfe0, 0xfffdffe0, 0xfffe1fe0, 0xfffe3fe0, 0xfffe5fe0, 0xfffe7fe0, 0xfffe9fe0, 0xfffebfe0, 0xfffedfe0, 0xfffeffe0} (#37)
                2067: [VX_scoreboard] Issuing store u-op. ISSUE_ID=0, sel_wis=0, op_type=0xa, uuid=#38, PC=0x80002f18
                2067: cluster0-socket0-core0-fetch rsp: wid=0, PC=0x80002f1c, tmask=11111111111111111111111111111111, instr=0x912423 (#39)
                2069: cluster0-socket0-core0-schedule: wid=0, PC=0x80002f20, tmask=11111111111111111111111111111111 (#40)
                2069: cluster0-socket0-core0-issue0-ibuffer: wid=0, PC=0x80002f1c, ex=LSU, op=SW, tmask=11111111111111111111111111111111, wb=0, used_rs=011, rd=1, rs1=2, rs2=9, rs3=23, offset=0x8 (#39)
                2071: cluster0-socket0-core0-fetch req: wid=0, PC=0x80002f20, tmask=11111111111111111111111111111111 (#40)
                2073: cluster0-socket0-core0-issue0-dispatch: wid=0, sid=0, PC=0x80002f18, ex=LSU, op=SW, tmask=11111111111111111111111111111111, wb=0, rd=1, rs1_data={0xfffb1fe0, 0xfffb3fe0, 0xfffb5fe0, 0xfffb7fe0, 0xfffb9fe0, 0xfffbbfe0, 0xfffbdfe0, 0xfffbffe0, 0xfffc1fe0, 0xfffc3fe0, 0xfffc5fe0, 0xfffc7fe0, 0xfffc9fe0, 0xfffcbfe0, 0xfffcdfe0, 0xfffcffe0, 0xfffd1fe0, 0xfffd3fe0, 0xfffd5fe0, 0xfffd7fe0, 0xfffd9fe0, 0xfffdbfe0, 0xfffddfe0, 0xfffdffe0, 0xfffe1fe0, 0xfffe3fe0, 0xfffe5fe0, 0xfffe7fe0, 0xfffe9fe0, 0xfffebfe0, 0xfffedfe0, 0xfffeffe0}, rs2_data={0x80007878, 0x8000785c, 0x80007840, 0x80007824, 0x80007808, 0x800077ec, 0x800077d0, 0x800077b4, 0x80007798, 0x8000777c, 0x80007760, 0x80007744, 0x80007728, 0x8000770c, 0x800076f0, 0x800076d4, 0x800076b8, 0x8000769c, 0x80007680, 0x80007664, 0x80007648, 0x8000762c, 0x80007610, 0x800075f4, 0x800075d8, 0x800075bc, 0x800075a0, 0x80007584, 0x80007568, 0x8000754c, 0x80007530, 0x80007514}, rs3_data={0x0, 0x0, 0x0, 0x0, 0x0, 0x0, 0x0, 0x0, 0x0, 0x0, 0x0, 0x0, 0x0, 0x0, 0x0, 0x0, 0x0, 0x0, 0x0, 0x0, 0x0, 0x0, 0x0, 0x0, 0x0, 0x0, 0x0, 0x0, 0x0, 0x0, 0x0, 0x0}, offset=0xc, sop=1, eop=1 (#38)
                2073: [VX_scoreboard] Issuing store u-op. ISSUE_ID=0, sel_wis=0, op_type=0xa, uuid=#39, PC=0x80002f1c
                2079: cluster0-socket0-core0-issue0-dispatch: wid=0, sid=0, PC=0x80002f1c, ex=LSU, op=SW, tmask=11111111111111111111111111111111, wb=0, rd=1, rs1_data={0xfffb1fe0, 0xfffb3fe0, 0xfffb5fe0, 0xfffb7fe0, 0xfffb9fe0, 0xfffbbfe0, 0xfffbdfe0, 0xfffbffe0, 0xfffc1fe0, 0xfffc3fe0, 0xfffc5fe0, 0xfffc7fe0, 0xfffc9fe0, 0xfffcbfe0, 0xfffcdfe0, 0xfffcffe0, 0xfffd1fe0, 0xfffd3fe0, 0xfffd5fe0, 0xfffd7fe0, 0xfffd9fe0, 0xfffdbfe0, 0xfffddfe0, 0xfffdffe0, 0xfffe1fe0, 0xfffe3fe0, 0xfffe5fe0, 0xfffe7fe0, 0xfffe9fe0, 0xfffebfe0, 0xfffedfe0, 0xfffeffe0}, rs2_data={0x0, 0x0, 0x0, 0x0, 0x0, 0x0, 0x0, 0x0, 0x0, 0x0, 0x0, 0x0, 0x0, 0x0, 0x0, 0x0, 0x0, 0x0, 0x0, 0x0, 0x0, 0x0, 0x0, 0x0, 0x0, 0x0, 0x0, 0x0, 0x0, 0x0, 0x0, 0x0}, rs3_data={0x0, 0x0, 0x0, 0x0, 0x0, 0x0, 0x0, 0x0, 0x0, 0x0, 0x0, 0x0, 0x0, 0x0, 0x0, 0x0, 0x0, 0x0, 0x0, 0x0, 0x0, 0x0, 0x0, 0x0, 0x0, 0x0, 0x0, 0x0, 0x0, 0x0, 0x0, 0x0}, offset=0x8, sop=1, eop=1 (#39)
                2079: cluster0-socket0-core0-fetch rsp: wid=0, PC=0x80002f20, tmask=11111111111111111111111111111111, instr=0x1212223 (#40)
                2081: cluster0-socket0-core0-schedule: wid=0, PC=0x80002f24, tmask=11111111111111111111111111111111 (#41)
                2081: cluster0-socket0-core0-issue0-ibuffer: wid=0, PC=0x80002f20, ex=LSU, op=SW, tmask=11111111111111111111111111111111, wb=0, used_rs=011, rd=1, rs1=2, rs2=18, rs3=23, offset=0x4 (#40)
                2083: cluster0-socket0-core0-commit: wid=0, sid=0, PC=0x80002f18, ex=LSU, tmask=11111111111111111111111111111111, wb=0, rd=0, sop=1, eop=1, data={0xac, 0x3f, 0xba, 0xf8, 0xfa, 0xc6, 0xb4, 0x47, 0x33, 0x20, 0x3d, 0xd3, 0x18, 0x1a, 0x88, 0x27, 0x2e, 0xbf, 0x98, 0x8e, 0xdd, 0xa3, 0xb7, 0xe8, 0xac, 0x18, 0xd3, 0x36, 0x67, 0xeb, 0xff, 0x73} (#38)
                2083: cluster0-socket0-core0-fetch req: wid=0, PC=0x80002f24, tmask=11111111111111111111111111111111 (#41)
                2087: [VX_scoreboard] Issuing store u-op. ISSUE_ID=0, sel_wis=0, op_type=0xa, uuid=#40, PC=0x80002f20
                2089: cluster0-socket0-core0-commit: wid=0, sid=0, PC=0x80002f1c, ex=LSU, tmask=11111111111111111111111111111111, wb=0, rd=0, sop=1, eop=1, data={0xac, 0x3f, 0xba, 0xf8, 0xfa, 0xc6, 0xb4, 0x47, 0x33, 0x20, 0x3d, 0xd3, 0x18, 0x1a, 0x88, 0x27, 0x2e, 0xbf, 0x98, 0x8e, 0xdd, 0xa3, 0xb7, 0xe8, 0xac, 0x18, 0xd3, 0x36, 0x67, 0xeb, 0xff, 0x73} (#39)
                2091: cluster0-socket0-core0-fetch rsp: wid=0, PC=0x80002f24, tmask=11111111111111111111111111111111, instr=0x1312023 (#41)
                2093: cluster0-socket0-core0-schedule: wid=0, PC=0x80002f28, tmask=11111111111111111111111111111111 (#42)
                2093: cluster0-socket0-core0-issue0-ibuffer: wid=0, PC=0x80002f24, ex=LSU, op=SW, tmask=11111111111111111111111111111111, wb=0, used_rs=011, rd=1, rs1=2, rs2=19, rs3=23, offset=0x0 (#41)
                2093: cluster0-socket0-core0-issue0-dispatch: wid=0, sid=0, PC=0x80002f20, ex=LSU, op=SW, tmask=11111111111111111111111111111111, wb=0, rd=1, rs1_data={0xfffb1fe0, 0xfffb3fe0, 0xfffb5fe0, 0xfffb7fe0, 0xfffb9fe0, 0xfffbbfe0, 0xfffbdfe0, 0xfffbffe0, 0xfffc1fe0, 0xfffc3fe0, 0xfffc5fe0, 0xfffc7fe0, 0xfffc9fe0, 0xfffcbfe0, 0xfffcdfe0, 0xfffcffe0, 0xfffd1fe0, 0xfffd3fe0, 0xfffd5fe0, 0xfffd7fe0, 0xfffd9fe0, 0xfffdbfe0, 0xfffddfe0, 0xfffdffe0, 0xfffe1fe0, 0xfffe3fe0, 0xfffe5fe0, 0xfffe7fe0, 0xfffe9fe0, 0xfffebfe0, 0xfffedfe0, 0xfffeffe0}, rs2_data={0x0, 0x0, 0x0, 0x0, 0x0, 0x0, 0x0, 0x0, 0x0, 0x0, 0x0, 0x0, 0x0, 0x0, 0x0, 0x0, 0x0, 0x0, 0x0, 0x0, 0x0, 0x0, 0x0, 0x0, 0x0, 0x0, 0x0, 0x0, 0x0, 0x0, 0x0, 0x0}, rs3_data={0x0, 0x0, 0x0, 0x0, 0x0, 0x0, 0x0, 0x0, 0x0, 0x0, 0x0, 0x0, 0x0, 0x0, 0x0, 0x0, 0x0, 0x0, 0x0, 0x0, 0x0, 0x0, 0x0, 0x0, 0x0, 0x0, 0x0, 0x0, 0x0, 0x0, 0x0, 0x0}, offset=0x4, sop=1, eop=1 (#40)
                2095: cluster0-socket0-core0-fetch req: wid=0, PC=0x80002f28, tmask=11111111111111111111111111111111 (#42)
                2097: [VX_scoreboard] Issuing store u-op. ISSUE_ID=0, sel_wis=0, op_type=0xa, uuid=#41, PC=0x80002f24
                2103: cluster0-socket0-core0-commit: wid=0, sid=0, PC=0x80002f20, ex=LSU, tmask=11111111111111111111111111111111, wb=0, rd=0, sop=1, eop=1, data={0xac, 0x3f, 0xba, 0xf8, 0xfa, 0xc6, 0xb4, 0x47, 0x33, 0x20, 0x3d, 0xd3, 0x18, 0x1a, 0x88, 0x27, 0x2e, 0xbf, 0x98, 0x8e, 0xdd, 0xa3, 0xb7, 0xe8, 0xac, 0x18, 0xd3, 0x36, 0x67, 0xeb, 0xff, 0x73} (#40)
                2103: cluster0-socket0-core0-issue0-dispatch: wid=0, sid=0, PC=0x80002f24, ex=LSU, op=SW, tmask=11111111111111111111111111111111, wb=0, rd=1, rs1_data={0xfffb1fe0, 0xfffb3fe0, 0xfffb5fe0, 0xfffb7fe0, 0xfffb9fe0, 0xfffbbfe0, 0xfffbdfe0, 0xfffbffe0, 0xfffc1fe0, 0xfffc3fe0, 0xfffc5fe0, 0xfffc7fe0, 0xfffc9fe0, 0xfffcbfe0, 0xfffcdfe0, 0xfffcffe0, 0xfffd1fe0, 0xfffd3fe0, 0xfffd5fe0, 0xfffd7fe0, 0xfffd9fe0, 0xfffdbfe0, 0xfffddfe0, 0xfffdffe0, 0xfffe1fe0, 0xfffe3fe0, 0xfffe5fe0, 0xfffe7fe0, 0xfffe9fe0, 0xfffebfe0, 0xfffedfe0, 0xfffeffe0}, rs2_data={0x0, 0x0, 0x0, 0x0, 0x0, 0x0, 0x0, 0x0, 0x0, 0x0, 0x0, 0x0, 0x0, 0x0, 0x0, 0x0, 0x0, 0x0, 0x0, 0x0, 0x0, 0x0, 0x0, 0x0, 0x0, 0x0, 0x0, 0x0, 0x0, 0x0, 0x0, 0x0}, rs3_data={0x0, 0x0, 0x0, 0x0, 0x0, 0x0, 0x0, 0x0, 0x0, 0x0, 0x0, 0x0, 0x0, 0x0, 0x0, 0x0, 0x0, 0x0, 0x0, 0x0, 0x0, 0x0, 0x0, 0x0, 0x0, 0x0, 0x0, 0x0, 0x0, 0x0, 0x0, 0x0}, offset=0x0, sop=1, eop=1 (#41)
                2103: cluster0-socket0-core0-fetch rsp: wid=0, PC=0x80002f28, tmask=11111111111111111111111111111111, instr=0x35f693 (#42)
                2105: cluster0-socket0-core0-schedule: wid=0, PC=0x80002f2c, tmask=11111111111111111111111111111111 (#43)
                2105: cluster0-socket0-core0-issue0-ibuffer: wid=0, PC=0x80002f28, ex=ALU, op=ANDI, tmask=11111111111111111111111111111111, wb=1, used_rs=001, rd=13, rs1=11, rs2=37, rs3=23, use_PC=0, use_imm=1, imm=0x3 (#42)
                2107: cluster0-socket0-core0-fetch req: wid=0, PC=0x80002f2c, tmask=11111111111111111111111111111111 (#43)
                2109: [VX_scoreboard] Issuing u-op. ISSUE_ID=0, sel_wis=0, ex_type=0, op_type=0xc, uuid=#42, PC=0x80002f28
                2115: cluster0-socket0-core0-issue0-dispatch: wid=0, sid=0, PC=0x80002f28, ex=ALU, op=ANDI, tmask=11111111111111111111111111111111, wb=1, rd=13, rs1_data={0x80007444, 0x80007444, 0x80007444, 0x80007444, 0x80007444, 0x80007444, 0x80007444, 0x80007444, 0x80007444, 0x80007444, 0x80007444, 0x80007444, 0x80007444, 0x80007444, 0x80007444, 0x80007444, 0x80007444, 0x80007444, 0x80007444, 0x80007444, 0x80007444, 0x80007444, 0x80007444, 0x80007444, 0x80007444, 0x80007444, 0x80007444, 0x80007444, 0x80007444, 0x80007444, 0x80007444, 0x80007444}, rs2_data={0x0, 0x0, 0x0, 0x0, 0x0, 0x0, 0x0, 0x0, 0x0, 0x0, 0x0, 0x0, 0x0, 0x0, 0x0, 0x0, 0x0, 0x0, 0x0, 0x0, 0x0, 0x0, 0x0, 0x0, 0x0, 0x0, 0x0, 0x0, 0x0, 0x0, 0x0, 0x0}, rs3_data={0x0, 0x0, 0x0, 0x0, 0x0, 0x0, 0x0, 0x0, 0x0, 0x0, 0x0, 0x0, 0x0, 0x0, 0x0, 0x0, 0x0, 0x0, 0x0, 0x0, 0x0, 0x0, 0x0, 0x0, 0x0, 0x0, 0x0, 0x0, 0x0, 0x0, 0x0, 0x0}, use_PC=0, use_imm=1, imm=0x3, sop=1, eop=1 (#42)
                2115: cluster0-socket0-core0-fetch rsp: wid=0, PC=0x80002f2c, tmask=11111111111111111111111111111111, instr=0xd036b3 (#43)
                2117: cluster0-socket0-core0-schedule: wid=0, PC=0x80002f30, tmask=11111111111111111111111111111111 (#44)
                2117: cluster0-socket0-core0-issue0-ibuffer: wid=0, PC=0x80002f2c, ex=ALU, op=SLTU, tmask=11111111111111111111111111111111, wb=1, used_rs=011, rd=13, rs1=0, rs2=13, rs3=23, use_PC=0, use_imm=0, imm=0xd1fe5573 (#43)
                2119: cluster0-socket0-core0-fetch req: wid=0, PC=0x80002f30, tmask=11111111111111111111111111111111 (#44)
                2121: cluster0-socket0-core0-commit: wid=0, sid=0, PC=0x80002f28, ex=ALU, tmask=11111111111111111111111111111111, wb=1, rd=13, sop=1, eop=1, data={0x0, 0x0, 0x0, 0x0, 0x0, 0x0, 0x0, 0x0, 0x0, 0x0, 0x0, 0x0, 0x0, 0x0, 0x0, 0x0, 0x0, 0x0, 0x0, 0x0, 0x0, 0x0, 0x0, 0x0, 0x0, 0x0, 0x0, 0x0, 0x0, 0x0, 0x0, 0x0} (#42)
                2127: [VX_scoreboard] Issuing u-op. ISSUE_ID=0, sel_wis=0, ex_type=0, op_type=0x4, uuid=#43, PC=0x80002f2c
                2127: cluster0-socket0-core0-fetch rsp: wid=0, PC=0x80002f30, tmask=11111111111111111111111111111111, instr=0xc03733 (#44)
                2129: cluster0-socket0-core0-schedule: wid=0, PC=0x80002f34, tmask=11111111111111111111111111111111 (#45)
                2129: cluster0-socket0-core0-issue0-ibuffer: wid=0, PC=0x80002f30, ex=ALU, op=SLTU, tmask=11111111111111111111111111111111, wb=1, used_rs=011, rd=14, rs1=0, rs2=12, rs3=23, use_PC=0, use_imm=0, imm=0xd1fe5573 (#44)
                2131: cluster0-socket0-core0-fetch req: wid=0, PC=0x80002f34, tmask=11111111111111111111111111111111 (#45)
                2133: cluster0-socket0-core0-issue0-dispatch: wid=0, sid=0, PC=0x80002f2c, ex=ALU, op=SLTU, tmask=11111111111111111111111111111111, wb=1, rd=13, rs1_data={0x0, 0x0, 0x0, 0x0, 0x0, 0x0, 0x0, 0x0, 0x0, 0x0, 0x0, 0x0, 0x0, 0x0, 0x0, 0x0, 0x0, 0x0, 0x0, 0x0, 0x0, 0x0, 0x0, 0x0, 0x0, 0x0, 0x0, 0x0, 0x0, 0x0, 0x0, 0x0}, rs2_data={0x0, 0x0, 0x0, 0x0, 0x0, 0x0, 0x0, 0x0, 0x0, 0x0, 0x0, 0x0, 0x0, 0x0, 0x0, 0x0, 0x0, 0x0, 0x0, 0x0, 0x0, 0x0, 0x0, 0x0, 0x0, 0x0, 0x0, 0x0, 0x0, 0x0, 0x0, 0x0}, rs3_data={0x0, 0x0, 0x0, 0x0, 0x0, 0x0, 0x0, 0x0, 0x0, 0x0, 0x0, 0x0, 0x0, 0x0, 0x0, 0x0, 0x0, 0x0, 0x0, 0x0, 0x0, 0x0, 0x0, 0x0, 0x0, 0x0, 0x0, 0x0, 0x0, 0x0, 0x0, 0x0}, use_PC=0, use_imm=0, imm=0xd1fe5573, sop=1, eop=1 (#43)
                2133: [VX_scoreboard] Issuing u-op. ISSUE_ID=0, sel_wis=0, ex_type=0, op_type=0x4, uuid=#44, PC=0x80002f30
                2139: cluster0-socket0-core0-commit: wid=0, sid=0, PC=0x80002f2c, ex=ALU, tmask=11111111111111111111111111111111, wb=1, rd=13, sop=1, eop=1, data={0x0, 0x0, 0x0, 0x0, 0x0, 0x0, 0x0, 0x0, 0x0, 0x0, 0x0, 0x0, 0x0, 0x0, 0x0, 0x0, 0x0, 0x0, 0x0, 0x0, 0x0, 0x0, 0x0, 0x0, 0x0, 0x0, 0x0, 0x0, 0x0, 0x0, 0x0, 0x0} (#43)
                2139: cluster0-socket0-core0-issue0-dispatch: wid=0, sid=0, PC=0x80002f30, ex=ALU, op=SLTU, tmask=11111111111111111111111111111111, wb=1, rd=14, rs1_data={0x0, 0x0, 0x0, 0x0, 0x0, 0x0, 0x0, 0x0, 0x0, 0x0, 0x0, 0x0, 0x0, 0x0, 0x0, 0x0, 0x0, 0x0, 0x0, 0x0, 0x0, 0x0, 0x0, 0x0, 0x0, 0x0, 0x0, 0x0, 0x0, 0x0, 0x0, 0x0}, rs2_data={0x0, 0x0, 0x0, 0x0, 0x0, 0x0, 0x0, 0x0, 0x0, 0x0, 0x0, 0x0, 0x0, 0x0, 0x0, 0x0, 0x0, 0x0, 0x0, 0x0, 0x0, 0x0, 0x0, 0x0, 0x0, 0x0, 0x0, 0x0, 0x0, 0x0, 0x0, 0x0}, rs3_data={0x0, 0x0, 0x0, 0x0, 0x0, 0x0, 0x0, 0x0, 0x0, 0x0, 0x0, 0x0, 0x0, 0x0, 0x0, 0x0, 0x0, 0x0, 0x0, 0x0, 0x0, 0x0, 0x0, 0x0, 0x0, 0x0, 0x0, 0x0, 0x0, 0x0, 0x0, 0x0}, use_PC=0, use_imm=0, imm=0xd1fe5573, sop=1, eop=1 (#44)
                2139: cluster0-socket0-core0-fetch rsp: wid=0, PC=0x80002f34, tmask=11111111111111111111111111111111, instr=0xe6f7b3 (#45)
                2141: cluster0-socket0-core0-schedule: wid=0, PC=0x80002f38, tmask=11111111111111111111111111111111 (#46)
                2141: cluster0-socket0-core0-issue0-ibuffer: wid=0, PC=0x80002f34, ex=ALU, op=AND, tmask=11111111111111111111111111111111, wb=1, used_rs=011, rd=15, rs1=13, rs2=14, rs3=23, use_PC=0, use_imm=0, imm=0xd1fe5573 (#45)
